time	V(n001)	-I(V1)
Step Information: X=1  (Run: 1/5)
0.000000000000000e+000	-2.449213e-016	-8.205822e-020
2.050781250000000e-002	1.284933e-001	4.305585e-005
4.199218750000000e-002	2.607843e-001	8.742156e-005
6.347656250000000e-002	3.883304e-001	1.302813e-004
8.496093750000000e-002	5.088110e-001	1.709198e-004
1.064453125000000e-001	6.200339e-001	2.086939e-004
1.279296875000000e-001	7.199754e-001	2.430647e-004
1.494140625000000e-001	8.068172e-001	2.736397e-004
1.708984375000000e-001	8.789791e-001	3.002276e-004
1.923828125000000e-001	9.351483e-001	3.229153e-004
2.138671875000000e-001	9.743027e-001	3.421748e-004
2.353515625000000e-001	9.957299e-001	3.590227e-004
2.568359375000000e-001	9.990401e-001	3.752778e-004
2.783203125000000e-001	9.841731e-001	3.940504e-004
2.958984375000000e-001	9.586674e-001	4.150035e-004
3.095703125000000e-001	9.307319e-001	4.382945e-004
3.193359375000000e-001	9.065616e-001	4.612127e-004
3.271484375000000e-001	8.847638e-001	4.852388e-004
3.349609375000000e-001	8.608345e-001	5.165566e-004
3.408203125000000e-001	8.415233e-001	5.467436e-004
3.466796875000000e-001	8.210716e-001	5.849588e-004
3.525390625000000e-001	7.995071e-001	6.344133e-004
3.564453125000000e-001	7.845271e-001	6.760337e-004
3.603515625000000e-001	7.690744e-001	7.271308e-004
3.642578125000000e-001	7.531585e-001	7.910243e-004
3.662109375000000e-001	7.450297e-001	8.292444e-004
3.681640625000000e-001	7.367888e-001	8.727330e-004
3.701171875000000e-001	7.284369e-001	9.225786e-004
3.720703125000000e-001	7.199754e-001	9.801803e-004
3.740234375000000e-001	7.114054e-001	1.047363e-003
3.759765625000000e-001	7.027283e-001	1.126542e-003
3.779296875000000e-001	6.939453e-001	1.220975e-003
3.798828125000000e-001	6.850579e-001	1.335129e-003
3.818359375000000e-001	6.760672e-001	1.475257e-003
3.837890625000000e-001	6.669748e-001	1.650274e-003
3.857421875000000e-001	6.577820e-001	1.873101e-003
3.879394531250000e-001	6.473452e-001	2.181653e-003
3.894042968750000e-001	6.403020e-001	2.463143e-003
3.901367187500000e-001	6.367589e-001	2.630916e-003
3.913574218750000e-001	6.308285e-001	2.947957e-003
3.918457031250000e-001	6.284428e-001	3.098544e-003
3.930664062500000e-001	6.224605e-001	3.511071e-003
3.939208984375000e-001	6.182496e-001	3.851049e-003
3.947753906250000e-001	6.140208e-001	4.232897e-003
3.956298828125000e-001	6.097744e-001	4.654229e-003
3.988037109375000e-001	5.938494e-001	6.367630e-003
3.999023437500000e-001	5.882809e-001	6.876471e-003
4.013671875000000e-001	5.808126e-001	7.381007e-003
4.020996093750000e-001	5.770590e-001	7.546599e-003
4.030761718750000e-001	5.720289e-001	7.681727e-003
4.050292968750000e-001	5.619100e-001	7.799054e-003
4.069824218750000e-001	5.517172e-001	7.789161e-003
4.108886718750000e-001	5.310840e-001	7.572131e-003
4.265136718750000e-001	4.454792e-001	6.363971e-003
4.479980468750000e-001	3.209431e-001	4.584902e-003
4.694824218750000e-001	1.905676e-001	2.722394e-003
4.909667968750000e-001	5.672469e-002	8.103527e-004
5.104980468750000e-001	-6.591087e-002	-9.415839e-004
5.183105468750000e-001	-1.147906e-001	-1.639866e-003
5.397949218750000e-001	-2.474323e-001	-3.534747e-003
5.612792968750000e-001	-3.755720e-001	-5.365314e-003
5.827636718750000e-001	-4.968783e-001	-7.096610e-003
5.886230468750000e-001	-5.284821e-001	-7.526730e-003
5.905761718750000e-001	-5.388596e-001	-7.641124e-003
5.925292968750000e-001	-5.491560e-001	-7.704917e-003
5.944824218750000e-001	-5.593697e-001	-7.655759e-003
5.966796875000000e-001	-5.707801e-001	-7.423738e-003
5.981445312500000e-001	-5.783124e-001	-7.005553e-003
5.992431640625000e-001	-5.839307e-001	-6.559561e-003
6.005859375000000e-001	-5.907593e-001	-5.891062e-003
6.026611328125000e-001	-6.012288e-001	-4.779139e-003
6.035156250000000e-001	-6.055104e-001	-4.352910e-003
6.043701171875000e-001	-6.097744e-001	-3.962787e-003
6.052246093750000e-001	-6.140208e-001	-3.612625e-003
6.066894531250000e-001	-6.212585e-001	-3.105337e-003
6.074218750000000e-001	-6.248565e-001	-2.892094e-003
6.086425781250000e-001	-6.308285e-001	-2.579386e-003
6.091308593750000e-001	-6.332038e-001	-2.473769e-003
6.101074218750000e-001	-6.379319e-001	-2.288289e-003
6.120605468750000e-001	-6.473216e-001	-1.979988e-003
6.140136718750000e-001	-6.566258e-001	-1.733790e-003
6.159667968750000e-001	-6.658311e-001	-1.541736e-003
6.179199218750000e-001	-6.749362e-001	-1.388978e-003
6.198730468750000e-001	-6.839396e-001	-1.265286e-003
6.218261718750000e-001	-6.928401e-001	-1.163519e-003
6.237792968750000e-001	-7.016362e-001	-1.078603e-003
6.257324218750000e-001	-7.103266e-001	-1.006862e-003
6.276855468750000e-001	-7.189100e-001	-9.455864e-004
6.296386718750000e-001	-7.273852e-001	-8.927418e-004
6.315917968750000e-001	-7.357509e-001	-8.467766e-004
6.335449218750000e-001	-7.440057e-001	-8.064899e-004
6.354980468750000e-001	-7.521485e-001	-7.709392e-004
6.394042968750000e-001	-7.680931e-001	-7.111988e-004
6.433105468750000e-001	-7.835750e-001	-6.631375e-004
6.472167968750000e-001	-7.985849e-001	-6.237978e-004
6.530761718750000e-001	-8.201951e-001	-5.768251e-004
6.589355468750000e-001	-8.406937e-001	-5.403549e-004
6.647949218750000e-001	-8.600530e-001	-5.114388e-004
6.726074218750000e-001	-8.840480e-001	-4.813383e-004
6.823730468750000e-001	-9.110404e-001	-4.532204e-004
6.940917968750000e-001	-9.388971e-001	-4.287413e-004
7.077636718750000e-001	-9.649569e-001	-4.082643e-004
7.272949218750000e-001	-9.898040e-001	-3.875921e-004
7.487792968750000e-001	-9.999329e-001	-3.702987e-004
7.702636718750000e-001	-9.918684e-001	-3.543691e-004
7.917480468750000e-001	-9.657570e-001	-3.371762e-004
8.132324218750000e-001	-9.220740e-001	-3.171847e-004
8.347167968750000e-001	-8.616140e-001	-2.935624e-004
8.562011718750000e-001	-7.854773e-001	-2.659639e-004
8.776855468750000e-001	-6.950489e-001	-2.343920e-004
8.991699218750000e-001	-5.919744e-001	-1.991018e-004
9.206542968750000e-001	-4.781291e-001	-1.605321e-004
9.421386718750000e-001	-3.555843e-001	-1.192543e-004
9.636230468750000e-001	-2.265697e-001	-7.593461e-005
9.851074218750000e-001	-9.343282e-002	-3.130330e-005
9.987792968750000e-001	-7.669612e-003	-2.569422e-006
1.000000000000000e+000	0.000000e+000	-6.300939e-041
Step Information: X=2  (Run: 2/5)
0.000000000000000e+000	-2.449213e-016	-9.081829e-020
1.025390625000000e-002	1.284933e-001	4.771329e-005
2.099609375000000e-002	2.607843e-001	9.727759e-005
3.173828125000000e-002	3.883304e-001	1.460222e-004
4.248046875000000e-002	5.088110e-001	1.936565e-004
5.322265625000000e-002	6.200339e-001	2.400595e-004
6.396484375000000e-002	7.199754e-001	2.853633e-004
7.470703125000000e-002	8.068172e-001	3.300678e-004
8.544921875000000e-002	8.789791e-001	3.752180e-004
9.619140625000000e-002	9.351483e-001	4.227044e-004
1.069335937500000e-001	9.743027e-001	4.758307e-004
1.157226562500000e-001	9.931746e-001	5.274889e-004
1.225585937500000e-001	9.994918e-001	5.764756e-004
1.284179687500000e-001	9.990401e-001	6.281549e-004
1.333007812500000e-001	9.945271e-001	6.813953e-004
1.372070312500000e-001	9.882203e-001	7.334999e-004
1.411132812500000e-001	9.795329e-001	7.974529e-004
1.440429687500000e-001	9.714673e-001	8.560192e-004
1.469726562500000e-001	9.620852e-001	9.269323e-004
1.499023437500000e-001	9.513992e-001	1.014575e-003
1.518554687500000e-001	9.435579e-001	1.085434e-003
1.538085937500000e-001	9.351483e-001	1.169397e-003
1.557617187500000e-001	9.261754e-001	1.270335e-003
1.577148437500000e-001	9.166446e-001	1.393727e-003
1.586914062500000e-001	9.116717e-001	1.466203e-003
1.596679687500000e-001	9.065616e-001	1.547548e-003
1.606445312500000e-001	9.013149e-001	1.639393e-003
1.616210937500000e-001	8.959325e-001	1.743771e-003
1.625976562500000e-001	8.904152e-001	1.863232e-003
1.635742187500000e-001	8.847638e-001	2.001008e-003
1.645507812500000e-001	8.789791e-001	2.161232e-003
1.655273437500000e-001	8.730621e-001	2.349229e-003
1.665039062500000e-001	8.670136e-001	2.571898e-003
1.674804687500000e-001	8.608345e-001	2.838202e-003
1.685791015625000e-001	8.537593e-001	3.187232e-003
1.694335937500000e-001	8.481193e-001	3.530163e-003
1.702880859375000e-001	8.423816e-001	3.939867e-003
1.711425781250000e-001	8.365468e-001	4.430142e-003
1.718750000000000e-001	8.314694e-001	4.924241e-003
1.727294921875000e-001	8.254559e-001	5.597190e-003
1.735839843750000e-001	8.193473e-001	6.371037e-003
1.758422851562500e-001	8.027495e-001	8.631073e-003
1.766967773437500e-001	7.963001e-001	9.367811e-003
1.775512695312500e-001	7.897590e-001	9.937627e-003
1.782836914062500e-001	7.840661e-001	1.025860e-002
1.792602539062500e-001	7.763761e-001	1.052521e-002
1.802368164062500e-001	7.685840e-001	1.066138e-002
1.812133789062500e-001	7.606761e-001	1.069114e-002
1.831665039062500e-001	7.445179e-001	1.058355e-002
1.890258789062500e-001	6.933929e-001	9.904094e-003
1.997680664062500e-001	5.901185e-001	8.430259e-003
2.105102539062500e-001	4.761070e-001	6.801528e-003
2.212524414062500e-001	3.534328e-001	5.049041e-003
2.319946289062500e-001	2.243281e-001	3.204687e-003
2.427368164062500e-001	9.114175e-002	1.302025e-003
2.456665039062500e-001	5.442736e-002	7.775337e-004
2.554321289062500e-001	-6.820658e-002	-9.743797e-004
2.661743164062500e-001	-2.018483e-001	-2.883547e-003
2.769165039062500e-001	-3.318174e-001	-4.740249e-003
2.876586914062500e-001	-4.557492e-001	-6.510704e-003
2.984008789062500e-001	-5.713888e-001	-8.162694e-003
3.091430664062500e-001	-6.766322e-001	-9.665126e-003
3.150024414062500e-001	-7.289622e-001	-1.038015e-002
3.169555664062500e-001	-7.455411e-001	-1.053958e-002
3.179321289062500e-001	-7.536628e-001	-1.056533e-002
3.189086914062500e-001	-7.616709e-001	-1.051989e-002
3.198852539062500e-001	-7.695643e-001	-1.035991e-002
3.209838867187500e-001	-7.783343e-001	-1.003185e-002
3.218383789062500e-001	-7.850310e-001	-9.556714e-003
3.226928710937500e-001	-7.916372e-001	-8.906713e-003
3.238525390625000e-001	-8.004574e-001	-7.817761e-003
3.252563476562500e-001	-8.109053e-001	-6.424389e-003
3.261108398437500e-001	-8.171420e-001	-5.652521e-003
3.269653320312500e-001	-8.232844e-001	-4.976877e-003
3.278198242187500e-001	-8.293319e-001	-4.401621e-003
3.286743164062500e-001	-8.352838e-001	-3.918117e-003
3.295288085937500e-001	-8.411394e-001	-3.513526e-003
3.302612304687500e-001	-8.460664e-001	-3.227521e-003
3.312377929687500e-001	-8.525279e-001	-2.902996e-003
3.322143554687500e-001	-8.588769e-001	-2.626722e-003
3.331909179687500e-001	-8.650966e-001	-2.395986e-003
3.341674804687500e-001	-8.711860e-001	-2.201443e-003
3.351440429687500e-001	-8.771442e-001	-2.035876e-003
3.361206054687500e-001	-8.829703e-001	-1.893709e-003
3.370971679687500e-001	-8.886635e-001	-1.770612e-003
3.380737304687500e-001	-8.942228e-001	-1.663200e-003
3.390502929687500e-001	-8.996475e-001	-1.568802e-003
3.400268554687500e-001	-9.049366e-001	-1.485296e-003
3.410034179687500e-001	-9.100895e-001	-1.410977e-003
3.429565429687500e-001	-9.199833e-001	-1.284637e-003
3.449096679687500e-001	-9.293230e-001	-1.181478e-003
3.468627929687500e-001	-9.381030e-001	-1.095807e-003
3.488159179687500e-001	-9.463177e-001	-1.023613e-003
3.517456054687500e-001	-9.575697e-001	-9.344610e-004
3.546752929687500e-001	-9.675239e-001	-8.624532e-004
3.576049804687500e-001	-9.761670e-001	-8.030764e-004
3.615112304687500e-001	-9.856313e-001	-7.383461e-004
3.654174804687500e-001	-9.927212e-001	-6.857028e-004
3.703002929687500e-001	-9.982190e-001	-6.320144e-004
3.761596679687500e-001	-9.998562e-001	-5.800183e-004
3.829956054687500e-001	-9.949191e-001	-5.308597e-004
3.917846679687500e-001	-9.778014e-001	-4.791790e-004
4.025268554687500e-001	-9.407310e-001	-4.262090e-004
4.132690429687500e-001	-8.865442e-001	-3.789960e-004
4.240112304687500e-001	-8.162270e-001	-3.341804e-004
4.347534179687500e-001	-7.310588e-001	-2.898336e-004
4.454956054687500e-001	-6.325891e-001	-2.448829e-004
4.562377929687500e-001	-5.226097e-001	-1.988073e-004
4.669799804687500e-001	-4.031215e-001	-1.514593e-004
4.777221679687500e-001	-2.762986e-001	-1.029490e-004
4.884643554687500e-001	-1.444486e-001	-5.356126e-005
4.982299804687500e-001	-2.224005e-002	-8.232634e-006
4.992065429687500e-001	-9.970382e-003	-3.690624e-006
5.000000000000000e-001	0.000000e+000	-2.851530e-037
Step Information: X=3  (Run: 3/5)
0.000000000000000e+000	-2.449213e-016	-1.224609e-019
4.101562500000044e-003	1.284933e-001	6.440603e-005
8.398437500000106e-003	2.607843e-001	1.317486e-004
1.269531250000017e-002	3.883304e-001	1.988591e-004
1.699218750000023e-002	5.088110e-001	2.657138e-004
2.128906250000029e-002	6.200339e-001	3.324092e-004
2.558593750000035e-002	7.199754e-001	3.992094e-004
2.988281250000041e-002	8.068172e-001	4.666021e-004
3.417968750000047e-002	8.789791e-001	5.353701e-004
3.847656250000053e-002	9.351483e-001	6.066856e-004
4.277343750000059e-002	9.743027e-001	6.822461e-004
4.707031250000066e-002	9.957299e-001	7.644792e-004
5.136718750000063e-002	9.990401e-001	8.568637e-004
5.527343750000041e-002	9.862710e-001	9.538701e-004
5.878906250000021e-002	9.620852e-001	1.056402e-003
6.191406250000003e-002	9.307319e-001	1.164368e-003
6.464843749999988e-002	8.959325e-001	1.276328e-003
6.738281249999972e-002	8.545258e-001	1.409841e-003
6.972656249999959e-002	8.140057e-001	1.546366e-003
7.207031249999946e-002	7.690744e-001	1.708633e-003
7.441406249999932e-002	7.199754e-001	1.902357e-003
7.675781249999919e-002	6.669748e-001	2.132592e-003
7.910156249999906e-002	6.103598e-001	2.400123e-003
8.339843749999881e-002	4.982089e-001	2.930334e-003
8.496093749999872e-002	4.550664e-001	3.085672e-003
8.613281249999866e-002	4.219844e-001	3.162725e-003
8.730468749999859e-002	3.883304e-001	3.191032e-003
8.847656249999852e-002	3.541502e-001	3.159141e-003
8.964843749999846e-002	3.194900e-001	3.059836e-003
9.042968749999841e-002	2.961397e-001	2.955104e-003
9.121093749999837e-002	2.726111e-001	2.820387e-003
9.238281249999830e-002	2.370147e-001	2.566103e-003
9.355468749999824e-002	2.010971e-001	2.256857e-003
9.472656249999817e-002	1.649069e-001	1.902569e-003
9.589843749999810e-002	1.284933e-001	1.513220e-003
9.707031249999804e-002	9.190550e-002	1.098100e-003
9.824218749999797e-002	5.519317e-002	6.655502e-004
9.941406249999790e-002	1.840604e-002	2.229439e-004
1.005859374999978e-001	-1.840604e-002	-2.229428e-004
1.017578124999978e-001	-5.519317e-002	-6.655420e-004
1.029296874999977e-001	-9.190550e-002	-1.098078e-003
1.041015624999976e-001	-1.284933e-001	-1.513176e-003
1.052734374999976e-001	-1.649069e-001	-1.902565e-003
1.064453124999975e-001	-2.010971e-001	-2.256933e-003
1.076171874999974e-001	-2.370147e-001	-2.566197e-003
1.087890624999974e-001	-2.726111e-001	-2.820499e-003
1.095703124999973e-001	-2.961397e-001	-2.955227e-003
1.103515624999973e-001	-3.194900e-001	-3.059970e-003
1.115234374999972e-001	-3.541502e-001	-3.159287e-003
1.126953124999972e-001	-3.883304e-001	-3.191186e-003
1.138671874999971e-001	-4.219844e-001	-3.162879e-003
1.150390624999970e-001	-4.550664e-001	-3.085821e-003
1.154296874999970e-001	-4.659590e-001	-3.051615e-003
1.173828124999969e-001	-5.193365e-001	-2.838908e-003
1.216796874999966e-001	-6.296145e-001	-2.307218e-003
1.240234374999965e-001	-6.850579e-001	-2.051651e-003
1.263671874999964e-001	-7.367888e-001	-1.833983e-003
1.287109374999962e-001	-7.845271e-001	-1.651371e-003
1.310546874999961e-001	-8.280139e-001	-1.498295e-003
1.337890624999960e-001	-8.730621e-001	-1.349620e-003
1.365234374999958e-001	-9.116717e-001	-1.226048e-003
1.396484374999956e-001	-9.475499e-001	-1.108087e-003
1.431640624999954e-001	-9.769914e-001	-9.973533e-004
1.470703124999952e-001	-9.957299e-001	-8.939047e-004
1.513671874999950e-001	-9.990401e-001	-7.966789e-004
1.556640624999947e-001	-9.841731e-001	-7.112246e-004
1.599609374999945e-001	-9.513992e-001	-6.335645e-004
1.642578124999942e-001	-9.013149e-001	-5.609342e-004
1.685546874999940e-001	-8.348315e-001	-4.913992e-004
1.728515624999937e-001	-7.531585e-001	-4.236146e-004
1.771484374999935e-001	-6.577820e-001	-3.566689e-004
1.814453124999932e-001	-5.504372e-001	-2.899761e-004
1.857421874999930e-001	-4.330775e-001	-2.231980e-004
1.900390624999928e-001	-3.078381e-001	-1.561830e-004
1.943359374999925e-001	-1.769976e-001	-8.891615e-005
1.986328124999923e-001	-4.293664e-002	-2.147494e-005
1.998046874999922e-001	-6.135731e-003	-3.067964e-006
2.000000000000000e-001	0.000000e+000	9.629693e-038
Step Information: X=4  (Run: 4/5)
0.000000000000000e+000	-2.449213e-016	-1.224606e-019
2.050781250000022e-003	1.284933e-001	6.432607e-005
4.199218750000053e-003	2.607843e-001	1.310633e-004
6.347656250000083e-003	3.883304e-001	1.964572e-004
8.496093750000114e-003	5.088110e-001	2.598230e-004
1.064453125000014e-002	6.200339e-001	3.204763e-004
1.279296875000018e-002	7.199754e-001	3.777285e-004
1.494140625000021e-002	8.068172e-001	4.308790e-004
1.708984375000024e-002	8.789791e-001	4.792032e-004
1.923828125000027e-002	9.351483e-001	5.219369e-004
2.138671875000030e-002	9.743027e-001	5.582572e-004
2.353515625000033e-002	9.957299e-001	5.872636e-004
2.568359375000032e-002	9.990401e-001	6.079610e-004
2.783203125000019e-002	9.841731e-001	6.192529e-004
2.998046875000007e-002	9.513992e-001	6.199519e-004
3.193359374999996e-002	9.065616e-001	6.103537e-004
3.388671874999985e-002	8.480884e-001	5.900665e-004
3.564453124999975e-002	7.845271e-001	5.619971e-004
3.740234374999965e-002	7.114054e-001	5.241675e-004
3.916015624999955e-002	6.296145e-001	4.763568e-004
4.072265624999946e-002	5.504372e-001	4.255452e-004
4.228515624999937e-002	4.659590e-001	3.672407e-004
4.384765624999928e-002	3.769932e-001	3.020545e-004
4.521484374999921e-002	2.961397e-001	2.400825e-004
4.658203124999913e-002	2.131023e-001	1.743356e-004
4.794921874999905e-002	1.284933e-001	1.057670e-004
4.931640624999897e-002	4.293664e-002	3.545265e-005
5.068359374999890e-002	-4.293664e-002	-3.545265e-005
5.205078124999882e-002	-1.284933e-001	-1.057670e-004
5.341796874999874e-002	-2.131023e-001	-1.743355e-004
5.478515624999866e-002	-2.961397e-001	-2.400825e-004
5.615234374999858e-002	-3.769932e-001	-3.020545e-004
5.771484374999850e-002	-4.659590e-001	-3.672407e-004
5.927734374999841e-002	-5.504372e-001	-4.255451e-004
6.083984374999832e-002	-6.296145e-001	-4.763568e-004
6.259765624999822e-002	-7.114054e-001	-5.241674e-004
6.435546874999812e-002	-7.845271e-001	-5.619971e-004
6.611328124999802e-002	-8.480884e-001	-5.900665e-004
6.806640624999791e-002	-9.065616e-001	-6.103537e-004
7.021484374999779e-002	-9.551052e-001	-6.203585e-004
7.236328124999766e-002	-9.862710e-001	-6.186457e-004
7.451171874999754e-002	-9.994918e-001	-6.064509e-004
7.666015624999742e-002	-9.945271e-001	-5.849543e-004
7.880859374999730e-002	-9.714673e-001	-5.552435e-004
8.095703124999717e-002	-9.307319e-001	-5.183041e-004
8.310546874999705e-002	-8.730621e-001	-4.750292e-004
8.525390624999693e-002	-7.995071e-001	-4.262354e-004
8.740234374999681e-002	-7.114054e-001	-3.726826e-004
8.955078124999669e-002	-6.103598e-001	-3.150925e-004
9.169921874999656e-002	-4.982089e-001	-2.541643e-004
9.384765624999644e-002	-3.769932e-001	-1.905859e-004
9.599609374999632e-002	-2.489182e-001	-1.250415e-004
9.814453124999620e-002	-1.163142e-001	-5.821615e-005
9.990234374999610e-002	-6.135731e-003	-3.067908e-006
1.000000000000000e-001	0.000000e+000	-1.203706e-038
Step Information: X=5  (Run: 5/5)
0.000000000000000e+000	-2.449213e-016	-1.224606e-019
1.025390625000011e-003	1.284933e-001	6.428630e-005
2.099609375000026e-003	2.607843e-001	1.307260e-004
3.173828125000042e-003	3.883304e-001	1.952980e-004
4.248046875000057e-003	5.088110e-001	2.570585e-004
5.322265625000072e-003	6.200339e-001	3.150787e-004
6.396484375000087e-003	7.199754e-001	3.684497e-004
7.470703125000103e-003	8.068172e-001	4.162885e-004
8.544921875000118e-003	8.789791e-001	4.577454e-004
9.619140625000133e-003	9.351483e-001	4.920122e-004
1.069335937500015e-002	9.743027e-001	5.183336e-004
1.176757812500016e-002	9.957299e-001	5.360220e-004
1.284179687500016e-002	9.990401e-001	5.444756e-004
1.391601562500010e-002	9.841731e-001	5.432023e-004
1.499023437500004e-002	9.513992e-001	5.318478e-004
1.606445312499998e-002	9.013149e-001	5.102284e-004
1.704101562499992e-002	8.415233e-001	4.816809e-004
