time	V(n001)	-I(V1)
Step Information: X=1  (Run: 1/5)
0.000000000000000e+000	-2.449213e-016	-5.563419e-020
2.050781250000000e-002	1.284933e-001	2.927954e-005
4.199218750000000e-002	2.607843e-001	6.002420e-005
6.347656250000000e-002	3.883304e-001	9.094580e-005
8.496093750000000e-002	5.088110e-001	1.222171e-004
1.064453125000000e-001	6.200339e-001	1.541225e-004
1.279296875000000e-001	7.199754e-001	1.871185e-004
1.494140625000000e-001	8.068172e-001	2.219239e-004
1.708984375000000e-001	8.789791e-001	2.596665e-004
1.904296875000000e-001	9.307319e-001	2.980186e-004
2.080078125000000e-001	9.653581e-001	3.376239e-004
2.236328125000000e-001	9.862710e-001	3.789150e-004
2.373046875000000e-001	9.967828e-001	4.219502e-004
2.490234375000000e-001	9.999435e-001	4.662080e-004
2.587890625000000e-001	9.984380e-001	5.103665e-004
2.685546875000000e-001	9.931746e-001	5.637073e-004
2.763671875000000e-001	9.862710e-001	6.154220e-004
2.841796875000000e-001	9.769914e-001	6.781865e-004
2.900390625000000e-001	9.684856e-001	7.349934e-004
2.958984375000000e-001	9.586674e-001	8.029728e-004
3.017578125000000e-001	9.475499e-001	8.858766e-004
3.056640625000000e-001	9.394239e-001	9.520836e-004
3.095703125000000e-001	9.307319e-001	1.029668e-003
3.134765625000000e-001	9.214793e-001	1.121799e-003
3.173828125000000e-001	9.116717e-001	1.232884e-003
3.193359375000000e-001	9.065616e-001	1.297403e-003
3.212890625000000e-001	9.013149e-001	1.369219e-003
3.232421875000000e-001	8.959325e-001	1.449589e-003
3.251953125000000e-001	8.904152e-001	1.540055e-003
3.271484375000000e-001	8.847638e-001	1.642534e-003
3.291015625000000e-001	8.789791e-001	1.759419e-003
3.312988281250000e-001	8.723450e-001	1.906700e-003
3.334960937500000e-001	8.655096e-001	2.086129e-003
3.352050781250000e-001	8.600813e-001	2.248762e-003
3.369140625000000e-001	8.545540e-001	2.436675e-003
3.386230468750000e-001	8.489280e-001	2.655369e-003
3.404541015625000e-001	8.427954e-001	2.929858e-003
3.421630859375000e-001	8.369675e-001	3.235775e-003
3.438720703125000e-001	8.310430e-001	3.599053e-003
3.455810546875000e-001	8.250228e-001	4.031916e-003
3.468627929687500e-001	8.204451e-001	4.410174e-003
3.484497070312500e-001	8.147039e-001	4.950079e-003
3.501586914062500e-001	8.084304e-001	5.625984e-003
3.522338867187500e-001	8.006874e-001	6.567868e-003
3.561401367187500e-001	7.857440e-001	8.458077e-003
3.579711914062500e-001	7.785757e-001	9.206173e-003
3.586425781250000e-001	7.759216e-001	9.435795e-003
3.604125976562500e-001	7.688577e-001	9.910724e-003
3.621215820312500e-001	7.619444e-001	1.019784e-002
3.630981445312500e-001	7.579455e-001	1.029168e-002
3.650512695312500e-001	7.498698e-001	1.039475e-002
3.670043945312500e-001	7.416953e-001	1.041774e-002
3.709106445312500e-001	7.250126e-001	1.030253e-002
3.806762695312500e-001	6.814178e-001	9.731478e-003
4.021606445312500e-001	5.767267e-001	8.238943e-003
4.236450195312500e-001	4.615574e-001	6.593678e-003
4.458618164062500e-001	3.336366e-001	4.766237e-003
4.680786132812500e-001	1.992250e-001	2.846072e-003
4.898071289062500e-001	6.399985e-002	9.142836e-004
5.000610351562500e-001	-3.834941e-004	-5.478488e-006
5.193481445312500e-001	-1.212682e-001	-1.732403e-003
5.415649414062500e-001	-2.582004e-001	-3.688577e-003
5.547485351562500e-001	-3.372505e-001	-4.817864e-003
5.769653320312500e-001	-4.649577e-001	-6.642253e-003
5.974731445312500e-001	-5.748456e-001	-8.212061e-003
6.170043945312500e-001	-6.706808e-001	-9.577895e-003
6.267700195312500e-001	-7.149000e-001	-1.015694e-002
6.306762695312500e-001	-7.318432e-001	-1.027631e-002
6.326293945312500e-001	-7.401502e-001	-1.025715e-002
6.348266601562500e-001	-7.493895e-001	-1.015261e-002
6.365356445312500e-001	-7.564560e-001	-9.927677e-003
6.382446289062500e-001	-7.634352e-001	-9.554883e-003
6.399536132812500e-001	-7.703273e-001	-9.016649e-003
6.418457031250000e-001	-7.778532e-001	-8.241440e-003
6.464233398437500e-001	-7.956046e-001	-6.083065e-003
6.482543945312500e-001	-8.025214e-001	-5.309853e-003
6.498413085937500e-001	-8.084304e-001	-4.725127e-003
6.512451171875000e-001	-8.135903e-001	-4.275484e-003
6.528320312500000e-001	-8.193470e-001	-3.837379e-003
6.545410156250000e-001	-8.254557e-001	-3.437991e-003
6.562500000000000e-001	-8.314691e-001	-3.101924e-003
6.580810546875000e-001	-8.378060e-001	-2.799279e-003
6.600341796875000e-001	-8.444420e-001	-2.529739e-003
6.622314453125000e-001	-8.517533e-001	-2.278523e-003
6.639404296875000e-001	-8.573300e-001	-2.112555e-003
6.656494140625000e-001	-8.628079e-001	-1.967991e-003
6.685791015625000e-001	-8.719380e-001	-1.763781e-003
6.705322265625000e-001	-8.778797e-001	-1.646777e-003
6.724853515625000e-001	-8.836893e-001	-1.544168e-003
6.744384765625000e-001	-8.893657e-001	-1.453568e-003
6.763916015625000e-001	-8.949083e-001	-1.373066e-003
6.783447265625000e-001	-9.003160e-001	-1.301122e-003
6.802978515625000e-001	-9.055882e-001	-1.236482e-003
6.842041015625000e-001	-9.157226e-001	-1.125177e-003
6.881103515625000e-001	-9.253055e-001	-1.032855e-003
6.920166015625000e-001	-9.343309e-001	-9.551063e-004
6.959228515625000e-001	-9.427936e-001	-8.887586e-004
7.017822265625000e-001	-9.544213e-001	-8.056806e-004
7.076416015625000e-001	-9.647555e-001	-7.375629e-004
7.135009765625000e-001	-9.737822e-001	-6.806460e-004
7.213134765625000e-001	-9.837632e-001	-6.177693e-004
7.291259765625000e-001	-9.913741e-001	-5.659728e-004
7.388916015625000e-001	-9.975277e-001	-5.125619e-004
7.486572265625000e-001	-9.999268e-001	-4.683607e-004
7.603759765625000e-001	-9.978380e-001	-4.240790e-004
7.740478515625000e-001	-9.885693e-001	-3.810441e-004
7.896728515625000e-001	-9.690558e-001	-3.397810e-004
8.052978515625000e-001	-9.402098e-001	-3.043486e-004
8.248291015625000e-001	-8.914599e-001	-2.655889e-004
8.463134765625000e-001	-8.223827e-001	-2.276142e-004
8.677978515625000e-001	-7.383425e-001	-1.927192e-004
8.892822265625000e-001	-6.408683e-001	-1.597223e-004
9.107666015625000e-001	-5.317337e-001	-1.278703e-004
9.322509765625000e-001	-4.129243e-001	-9.668439e-005
9.537353515625000e-001	-2.866019e-001	-6.586610e-005
9.752197265625000e-001	-1.550649e-001	-3.523520e-005
9.967041015625000e-001	-2.070648e-002	-4.684381e-006
9.986572265625000e-001	-8.436543e-003	-1.908438e-006
1.000000000000000e+000	0.000000e+000	-6.970339e-037
Step Information: X=2  (Run: 2/5)
0.000000000000000e+000	-2.449213e-016	-1.154528e-019
9.277343750000000e-003	1.163142e-001	5.510126e-005
1.904296875000000e-002	2.370147e-001	1.140688e-004
2.880859375000000e-002	3.541502e-001	1.751494e-004
3.759765625000000e-002	4.550664e-001	2.330772e-004
4.638671875000000e-002	5.504372e-001	2.951769e-004
5.419921875000000e-002	6.296145e-001	3.553326e-004
6.201171875000000e-002	7.027283e-001	4.219886e-004
6.884765625000000e-002	7.611737e-001	4.876094e-004
7.470703125000000e-002	8.068172e-001	5.511633e-004
8.056640625000000e-002	8.480884e-001	6.237096e-004
8.544921875000000e-002	8.789791e-001	6.931999e-004
9.033203125000000e-002	9.065616e-001	7.735165e-004
9.521484375000000e-002	9.307319e-001	8.681602e-004
9.912109375000000e-002	9.475499e-001	9.575313e-004
1.030273437500000e-001	9.620852e-001	1.062993e-003
1.059570312500000e-001	9.714673e-001	1.155745e-003
1.088867187500000e-001	9.795329e-001	1.263546e-003
1.118164062500000e-001	9.862710e-001	1.390567e-003
1.147460937500000e-001	9.916724e-001	1.542585e-003
1.166992187500000e-001	9.945271e-001	1.661734e-003
1.186523437500000e-001	9.967828e-001	1.798841e-003
1.206054687500000e-001	9.984380e-001	1.958173e-003
1.225585937500000e-001	9.994918e-001	2.145348e-003
1.245117187500000e-001	9.999435e-001	2.367873e-003
1.265869140625000e-001	9.998000e-001	2.650836e-003
1.282958984375000e-001	9.991412e-001	2.936181e-003
1.298828125000000e-001	9.981158e-001	3.253503e-003
1.311035156250000e-001	9.970554e-001	3.540556e-003
1.325683593750000e-001	9.954796e-001	3.944179e-003
1.338500976562500e-001	9.938210e-001	4.363817e-003
1.351318359375000e-001	9.919045e-001	4.857852e-003
1.364135742187500e-001	9.897308e-001	5.439606e-003
1.376953125000000e-001	9.873003e-001	6.121397e-003
1.390075683593750e-001	9.845476e-001	6.930258e-003
1.405639648437500e-001	9.809343e-001	8.027419e-003
1.439819335937500e-001	9.716851e-001	1.062394e-002
1.453857421875000e-001	9.673651e-001	1.153010e-002
1.458129882812500e-001	9.659908e-001	1.176663e-002
1.470947265625000e-001	9.617009e-001	1.235330e-002
1.486206054687500e-001	9.562653e-001	1.281912e-002
1.499633789062500e-001	9.511807e-001	1.305576e-002
1.519165039062500e-001	9.433037e-001	1.321030e-002
1.548461914062500e-001	9.304512e-001	1.320345e-002
1.607055664062500e-001	9.009825e-001	1.286128e-002
1.704711914062500e-001	8.411088e-001	1.201554e-002
1.812133789062500e-001	7.606761e-001	1.086679e-002
1.919555664062500e-001	6.664032e-001	9.520045e-003
2.029418945312500e-001	5.574793e-001	7.963991e-003
2.140502929687500e-001	4.365452e-001	6.236360e-003
2.251586914062500e-001	3.071184e-001	4.387405e-003
2.362670898437500e-001	1.717167e-001	2.453096e-003
2.471313476562500e-001	3.604070e-002	5.148671e-004
2.507934570312500e-001	-9.970658e-003	-1.424380e-004
2.610473632812500e-001	-1.383791e-001	-1.976845e-003
2.661743164062500e-001	-2.018549e-001	-2.883642e-003
2.772827148437500e-001	-3.361660e-001	-4.802371e-003
2.883911132812500e-001	-4.639372e-001	-6.627674e-003
2.992553710937500e-001	-5.801676e-001	-8.288109e-003
3.099975585937500e-001	-6.844990e-001	-9.778555e-003
3.207397460937500e-001	-7.763761e-001	-1.109106e-002
3.314819335937500e-001	-8.541273e-001	-1.220070e-002
3.402709960937500e-001	-9.062377e-001	-1.291909e-002
3.441772460937500e-001	-9.258859e-001	-1.311048e-002
3.471069335937500e-001	-9.391608e-001	-1.307275e-002
3.491821289062500e-001	-9.478292e-001	-1.283880e-002
3.507690429687500e-001	-9.539981e-001	-1.243483e-002
3.521728515625000e-001	-9.591375e-001	-1.186323e-002
3.535461425781250e-001	-9.638780e-001	-1.109537e-002
3.552551269531250e-001	-9.693752e-001	-9.904481e-003
3.582458496093750e-001	-9.779181e-001	-7.649046e-003
3.597412109375000e-001	-9.816724e-001	-6.643213e-003
3.610229492187500e-001	-9.846145e-001	-5.892762e-003
3.615722656250000e-001	-9.857963e-001	-5.603821e-003
3.628540039062500e-001	-9.883733e-001	-5.000052e-003
3.641357421875000e-001	-9.906939e-001	-4.486491e-003
3.654174804687500e-001	-9.927574e-001	-4.050092e-003
3.666992187500000e-001	-9.945634e-001	-3.678313e-003
3.677978515625000e-001	-9.959025e-001	-3.403250e-003
3.692626953125000e-001	-9.974009e-001	-3.086177e-003
3.709716796875000e-001	-9.987178e-001	-2.776854e-003
3.726806640625000e-001	-9.995377e-001	-2.521747e-003
3.746337890625000e-001	-9.999518e-001	-2.274575e-003
3.765869140625000e-001	-9.997635e-001	-2.068148e-003
3.785400390625000e-001	-9.989731e-001	-1.893577e-003
3.804931640625000e-001	-9.975809e-001	-1.744253e-003
3.824462890625000e-001	-9.955878e-001	-1.615196e-003
3.853759765625000e-001	-9.914742e-001	-1.451533e-003
3.883056640625000e-001	-9.860169e-001	-1.315678e-003
3.912353515625000e-001	-9.792233e-001	-1.201044e-003
3.941650390625000e-001	-9.711026e-001	-1.102919e-003
3.980712890625000e-001	-9.582300e-001	-9.919348e-004
4.019775390625000e-001	-9.430490e-001	-8.983886e-004
4.058837890625000e-001	-9.255960e-001	-8.181785e-004
4.107666015625000e-001	-9.006495e-001	-7.322666e-004
4.156494140625000e-001	-8.723132e-001	-6.585555e-004
4.215087890625000e-001	-8.339861e-001	-5.822229e-004
4.273681640625000e-001	-7.911395e-001	-5.158746e-004
4.342041015625000e-001	-7.357509e-001	-4.478786e-004
4.410400390625000e-001	-6.749362e-001	-3.874633e-004
4.488525390625000e-001	-5.993667e-001	-3.252713e-004
4.576416015625000e-001	-5.074899e-001	-2.616659e-004
4.664306640625000e-001	-4.094287e-001	-2.028487e-004
4.761962890625000e-001	-2.946743e-001	-1.413392e-004
4.859619140625000e-001	-1.754876e-001	-8.243466e-005
4.957275390625000e-001	-5.366152e-002	-2.495779e-005
4.996337890625000e-001	-4.601825e-003	-2.138077e-006
5.000000000000000e-001	0.000000e+000	-1.789536e-037
Step Information: X=3  (Run: 3/5)
0.000000000000000e+000	-2.449213e-016	-1.224606e-019
4.101562500000044e-003	1.284933e-001	6.441467e-005
8.398437500000106e-003	2.607843e-001	1.318148e-004
1.269531250000017e-002	3.883304e-001	1.990405e-004
1.699218750000023e-002	5.088110e-001	2.659869e-004
2.128906250000029e-002	6.200339e-001	3.325260e-004
2.558593750000035e-002	7.199754e-001	3.984917e-004
2.988281250000041e-002	8.068172e-001	4.636565e-004
3.417968750000047e-002	8.789791e-001	5.276998e-004
3.847656250000053e-002	9.351483e-001	5.901601e-004
4.277343750000059e-002	9.743027e-001	6.503703e-004
4.707031250000066e-002	9.957299e-001	7.073685e-004
5.136718750000063e-002	9.990401e-001	7.597813e-004
5.566406250000039e-002	9.841731e-001	8.056784e-004
5.996093750000014e-002	9.513992e-001	8.424062e-004
6.425781249999990e-002	9.013149e-001	8.664253e-004
6.816406249999968e-002	8.415233e-001	8.734449e-004
7.167968749999948e-002	7.768592e-001	8.642465e-004
7.480468749999930e-002	7.114054e-001	8.410041e-004
7.753906249999915e-002	6.484900e-001	8.071517e-004
8.027343749999899e-002	5.807921e-001	7.592319e-004
8.261718749999886e-002	5.193365e-001	7.061489e-004
8.496093749999872e-002	4.550664e-001	6.415833e-004
8.730468749999859e-002	3.883304e-001	5.655523e-004
8.925781249999848e-002	3.310938e-001	4.937684e-004
9.121093749999837e-002	2.726111e-001	4.149064e-004
9.316406249999826e-002	2.131023e-001	3.297868e-004
9.511718749999815e-002	1.527914e-001	2.394838e-004
9.707031249999804e-002	9.190550e-002	1.452971e-004
9.902343749999792e-002	3.067365e-002	4.870410e-005
1.009765624999978e-001	-3.067365e-002	-4.870410e-005
1.029296874999977e-001	-9.190550e-002	-1.452971e-004
1.048828124999976e-001	-1.527914e-001	-2.394838e-004
1.068359374999975e-001	-2.131023e-001	-3.297868e-004
1.087890624999974e-001	-2.726111e-001	-4.149064e-004
1.107421874999973e-001	-3.310938e-001	-4.937684e-004
1.130859374999971e-001	-3.996091e-001	-5.790062e-004
1.154296874999970e-001	-4.659590e-001	-6.531464e-004
1.177734374999969e-001	-5.297837e-001	-7.157879e-004
1.201171874999967e-001	-5.907375e-001	-7.669835e-004
1.228515624999966e-001	-6.577820e-001	-8.128194e-004
1.255859374999964e-001	-7.199754e-001	-8.447696e-004
1.287109374999962e-001	-7.845271e-001	-8.661001e-004
1.322265624999960e-001	-8.480884e-001	-8.734949e-004
1.361328124999958e-001	-9.065616e-001	-8.648788e-004
1.404296874999956e-001	-9.551052e-001	-8.395324e-004
1.447265624999953e-001	-9.862710e-001	-8.018391e-004
1.490234374999951e-001	-9.994918e-001	-7.552521e-004
1.533203124999948e-001	-9.945271e-001	-7.023521e-004
1.576171874999946e-001	-9.714673e-001	-6.450124e-004
1.619140624999944e-001	-9.307319e-001	-5.845630e-004
1.662109374999941e-001	-8.730621e-001	-5.219349e-004
1.705078124999939e-001	-7.995071e-001	-4.577731e-004
1.748046874999936e-001	-7.114054e-001	-3.925239e-004
1.791015624999934e-001	-6.103598e-001	-3.264979e-004
1.833984374999931e-001	-4.982089e-001	-2.599155e-004
1.876953124999929e-001	-3.769932e-001	-1.929389e-004
1.919921874999926e-001	-2.489182e-001	-1.256933e-004
1.962890624999924e-001	-1.163142e-001	-5.828197e-005
1.998046874999922e-001	-6.135731e-003	-3.067956e-006
2.000000000000000e-001	0.000000e+000	9.629652e-038
Step Information: X=4  (Run: 4/5)
0.000000000000000e+000	-2.449213e-016	-1.224606e-019
2.050781250000022e-003	1.284933e-001	6.433052e-005
4.199218750000053e-003	2.607843e-001	1.310989e-004
6.347656250000083e-003	3.883304e-001	1.965672e-004
8.496093750000114e-003	5.088110e-001	2.600445e-004
1.064453125000014e-002	6.200339e-001	3.208093e-004
1.279296875000018e-002	7.199754e-001	3.780985e-004
1.494140625000021e-002	8.068172e-001	4.310996e-004
1.708984375000024e-002	8.789791e-001	4.789435e-004
1.923828125000027e-002	9.351483e-001	5.207006e-004
2.138671875000030e-002	9.743027e-001	5.553834e-004
2.353515625000033e-002	9.957299e-001	5.819553e-004
2.568359375000032e-002	9.990401e-001	5.993517e-004
2.783203125000019e-002	9.841731e-001	6.065144e-004
2.998046875000007e-002	9.513992e-001	6.024430e-004
3.193359374999996e-002	9.065616e-001	5.882556e-004
3.388671874999985e-002	8.480884e-001	5.635576e-004
3.583984374999974e-002	7.768592e-001	5.280564e-004
3.759765624999964e-002	7.027283e-001	4.868500e-004
3.935546874999954e-002	6.200339e-001	4.371003e-004
4.111328124999944e-002	5.297837e-001	3.792844e-004
4.287109374999934e-002	4.330775e-001	3.141522e-004
4.443359374999925e-002	3.426478e-001	2.509371e-004
4.599609374999916e-002	2.489182e-001	1.836388e-004
4.755859374999907e-002	1.527914e-001	1.132895e-004
4.912109374999898e-002	5.519317e-002	4.103090e-005
5.087890624999888e-002	-5.519317e-002	-4.103090e-005
5.244140624999880e-002	-1.527914e-001	-1.132895e-004
5.400390624999871e-002	-2.489182e-001	-1.836388e-004
5.556640624999862e-002	-3.426478e-001	-2.509371e-004
5.712890624999853e-002	-4.330775e-001	-3.141522e-004
5.771484374999850e-002	-4.659590e-001	-3.366182e-004
5.947265624999840e-002	-5.606405e-001	-3.994121e-004
6.123046874999830e-002	-6.484900e-001	-4.546088e-004
6.298828124999820e-002	-7.284369e-001	-5.015508e-004
6.474609374999810e-002	-7.995071e-001	-5.398480e-004
6.669921874999799e-002	-8.670136e-001	-5.720928e-004
6.865234374999787e-002	-9.214793e-001	-5.935961e-004
7.060546874999776e-002	-9.620852e-001	-6.047204e-004
7.275390624999764e-002	-9.900209e-001	-6.056346e-004
7.490234374999752e-002	-9.999435e-001	-5.955782e-004
7.705078124999740e-002	-9.916724e-001	-5.755734e-004
7.919921874999727e-002	-9.653581e-001	-5.466845e-004
8.134765624999715e-002	-9.214793e-001	-5.099714e-004
8.349609374999703e-002	-8.608345e-001	-4.664586e-004
8.564453124999691e-002	-7.845271e-001	-4.171185e-004
8.779296874999679e-002	-6.939453e-001	-3.628642e-004
8.994140624999666e-002	-5.907375e-001	-3.045488e-004
9.208984374999654e-002	-4.767813e-001	-2.429705e-004
9.423828124999642e-002	-3.541502e-001	-1.788801e-004
9.638671874999630e-002	-2.250754e-001	-1.129898e-004
9.853515624999618e-002	-9.190550e-002	-4.598375e-005
9.990234374999610e-002	-6.135731e-003	-3.067910e-006
1.000000000000000e-001	0.000000e+000	0.000000e+000
Step Information: X=5  (Run: 5/5)
0.000000000000000e+000	-2.449213e-016	-1.224606e-019
1.025390625000011e-003	1.284933e-001	6.428854e-005
2.099609375000026e-003	2.607843e-001	1.307444e-004
3.173828125000042e-003	3.883304e-001	1.953575e-004
4.248046875000057e-003	5.088110e-001	2.571885e-004
5.322265625000072e-003	6.200339e-001	3.153044e-004
6.396484375000087e-003	7.199754e-001	3.687819e-004
7.470703125000103e-003	8.068172e-001	4.167154e-004
8.544921875000118e-003	8.789791e-001	4.582253e-004
9.619140625000133e-003	9.351483e-001	4.924717e-004
1.069335937500015e-002	9.743027e-001	5.186702e-004
1.176757812500016e-002	9.957299e-001	5.361129e-004
1.284179687500016e-002	9.990401e-001	5.441929e-004
1.391601562500010e-002	9.841731e-001	5.424319e-004
1.499023437500004e-002	9.513992e-001	5.305114e-004
1.606445312499998e-002	9.013149e-001	5.083035e-004
1.704101562499992e-002	8.415233e-001	4.792615e-004
1.801757812499986e-002	7.690744e-001	4.420383e-004
1.899414062499981e-002	6.850579e-001	3.970616e-004
1.997070312499975e-002	5.907375e-001	3.449454e-004
2.094726562499970e-002	4.875318e-001	2.864896e-004
2.192382812499964e-002	3.769932e-001	2.226694e-004
2.290039062499959e-002	2.607843e-001	1.546167e-004
2.387695312499953e-002	1.406530e-001	8.359209e-005
2.475585937499948e-002	3.067365e-002	1.824662e-005
2.543945312499944e-002	-5.519317e-002	-3.282901e-005
2.641601562499939e-002	-1.769976e-001	-1.051324e-004
2.739257812499933e-002	-2.961397e-001	-1.754041e-004
2.836914062499928e-002	-4.108277e-001	-2.423142e-004
2.885742187499925e-002	-4.659590e-001	-2.741207e-004
2.983398437499919e-002	-5.707592e-001	-3.337327e-004
3.081054687499914e-002	-6.669748e-001	-3.871866e-004
3.178710937499908e-002	-7.531585e-001	-4.336463e-004
3.276367187499903e-002	-8.280139e-001	-4.724603e-004
3.374023437499897e-002	-8.904152e-001	-5.031640e-004
3.481445312499891e-002	-9.435579e-001	-5.272392e-004
3.588867187499885e-002	-9.795329e-001	-5.410267e-004
3.696289062499879e-002	-9.976855e-001	-5.446163e-004
