time	V(n001)	I(I1)
Step Information: X=1  (Run: 1/5)
0.000000000000000e+000	8.515030e-001	-4.898425e-020
3.650000000007481e-003	8.793443e-001	2.293161e-006
6.750000000014023e-003	9.057530e-001	4.239878e-006
9.450000000019720e-003	9.310941e-001	5.934121e-006
1.185000000002479e-002	9.556463e-001	7.438696e-006
1.405000000002943e-002	9.799798e-001	8.816412e-006
1.605000000003365e-002	1.003734e+000	1.006743e-005
1.795000000003766e-002	1.027835e+000	1.125442e-005
1.975000000004146e-002	1.052125e+000	1.237747e-005
2.145000000004504e-002	1.076432e+000	1.343667e-005
2.305000000004842e-002	1.100572e+000	1.443216e-005
2.455000000005159e-002	1.124357e+000	1.536412e-005
2.605000000005475e-002	1.149292e+000	1.629471e-005
2.755000000005792e-002	1.175408e+000	1.722386e-005
2.895000000006087e-002	1.200875e+000	1.808968e-005
2.965000000006235e-002	1.214010e+000	1.852207e-005
3.105000000006530e-002	1.241097e+000	1.938577e-005
3.255000000006847e-002	1.271342e+000	2.030949e-005
3.405000000007163e-002	1.302871e+000	2.123141e-005
3.555000000007480e-002	1.335699e+000	2.215144e-005
3.715000000007818e-002	1.372162e+000	2.313064e-005
3.885000000008176e-002	1.412554e+000	2.416848e-005
4.075000000008577e-002	1.459723e+000	2.532514e-005
4.285000000009021e-002	1.514357e+000	2.659935e-005
4.535000000009548e-002	1.582828e+000	2.811022e-005
4.845000000010202e-002	1.672917e+000	2.997402e-005
5.285000000011131e-002	1.810622e+000	3.259971e-005
5.965000000012566e-002	2.045972e+000	3.660789e-005
6.475000000013642e-002	2.240229e+000	3.957058e-005
6.755000000014233e-002	2.353254e+000	4.118006e-005
6.945000000014634e-002	2.432487e+000	4.226499e-005
7.085000000014929e-002	2.492165e+000	4.306056e-005
7.195000000015162e-002	2.539815e+000	4.368331e-005
7.295000000015373e-002	2.583703e+000	4.424765e-005
7.375000000015541e-002	2.619197e+000	4.469786e-005
7.445000000015689e-002	2.650528e+000	4.509087e-005
7.515000000015837e-002	2.682107e+000	4.548300e-005
7.575000000015963e-002	2.709368e+000	4.581842e-005
7.635000000016090e-002	2.736798e+000	4.615318e-005
7.685000000016196e-002	2.759781e+000	4.643165e-005
7.735000000016301e-002	2.782871e+000	4.670966e-005
7.785000000016407e-002	2.806062e+000	4.698721e-005
7.835000000016512e-002	2.829346e+000	4.726430e-005
7.875000000016597e-002	2.848033e+000	4.748564e-005
7.915000000016681e-002	2.866768e+000	4.770667e-005
7.955000000016765e-002	2.885545e+000	4.792740e-005
7.995000000016850e-002	2.904354e+000	4.814783e-005
8.035000000016934e-002	2.923188e+000	4.836796e-005
8.075000000017019e-002	2.942037e+000	4.858778e-005
8.115000000017103e-002	2.960888e+000	4.880729e-005
8.155000000017187e-002	2.979728e+000	4.902649e-005
8.195000000017272e-002	2.998543e+000	4.924539e-005
8.235000000017356e-002	3.017313e+000	4.946398e-005
8.275000000017441e-002	3.036020e+000	4.968225e-005
8.315000000017525e-002	3.054639e+000	4.990021e-005
8.355000000017610e-002	3.073146e+000	5.011785e-005
8.395000000017694e-002	3.091510e+000	5.033517e-005
8.435000000017778e-002	3.109699e+000	5.055218e-005
8.475000000017863e-002	3.127676e+000	5.076887e-005
8.515000000017947e-002	3.145402e+000	5.098524e-005
8.555000000018032e-002	3.162833e+000	5.120128e-005
8.595000000018116e-002	3.179921e+000	5.141701e-005
8.645000000018221e-002	3.200722e+000	5.168620e-005
8.695000000018327e-002	3.220807e+000	5.195489e-005
8.745000000018433e-002	3.240070e+000	5.222306e-005
8.805000000018559e-002	3.261956e+000	5.254419e-005
8.875000000018707e-002	3.285585e+000	5.291789e-005
8.965000000018897e-002	3.312628e+000	5.339687e-005
9.125000000019234e-002	3.350830e+000	5.424415e-005
9.205000000019403e-002	3.365316e+000	5.466574e-005
9.265000000019530e-002	3.374361e+000	5.498102e-005
9.315000000019635e-002	3.380828e+000	5.524317e-005
9.365000000019741e-002	3.386424e+000	5.550476e-005
9.415000000019846e-002	3.391249e+000	5.576581e-005
9.455000000019931e-002	3.394617e+000	5.597425e-005
9.495000000020015e-002	3.397599e+000	5.618235e-005
9.535000000020100e-002	3.400239e+000	5.639008e-005
9.575000000020184e-002	3.402578e+000	5.659746e-005
9.615000000020268e-002	3.404653e+000	5.680448e-005
9.655000000020353e-002	3.406498e+000	5.701114e-005
9.695000000020437e-002	3.408143e+000	5.721744e-005
9.735000000020522e-002	3.409614e+000	5.742339e-005
9.775000000020606e-002	3.410937e+000	5.762896e-005
9.815000000020691e-002	3.412130e+000	5.783418e-005
9.865000000020796e-002	3.413469e+000	5.809018e-005
9.915000000020902e-002	3.414665e+000	5.834561e-005
9.965000000021007e-002	3.415743e+000	5.860047e-005
1.001500000002111e-001	3.416725e+000	5.885474e-005
1.007500000002124e-001	3.417800e+000	5.915911e-005
1.013500000002137e-001	3.418784e+000	5.946263e-005
1.020500000002151e-001	3.419843e+000	5.981567e-005
1.028500000002168e-001	3.420964e+000	6.021773e-005
1.038500000002189e-001	3.422267e+000	6.071816e-005
1.050500000002215e-001	3.423730e+000	6.131552e-005
1.066500000002248e-001	3.425567e+000	6.210656e-005
1.090500000002299e-001	3.428172e+000	6.328134e-005
1.137500000002398e-001	3.432957e+000	6.554001e-005
1.196500000002523e-001	3.438531e+000	6.829423e-005
1.323500000002791e-001	3.449166e+000	7.389964e-005
1.468500000003097e-001	3.459351e+000	7.972257e-005
1.496500000003156e-001	3.461104e+000	8.077224e-005
1.664500000003510e-001	3.470333e+000	8.653438e-005
1.796500000003789e-001	3.476167e+000	9.038884e-005
2.009500000004239e-001	3.483249e+000	9.528840e-005
2.096500000004422e-001	3.485376e+000	9.680339e-005
2.320500000004895e-001	3.488945e+000	9.936466e-005
2.396500000005055e-001	3.489552e+000	9.978861e-005
2.621500000005530e-001	3.489599e+000	9.970873e-005
2.696500000005688e-001	3.489035e+000	9.923879e-005
2.921500000006163e-001	3.485571e+000	9.651353e-005
2.996500000006321e-001	3.483810e+000	9.517337e-005
3.221500000006796e-001	3.476596e+000	8.989928e-005
3.296500000006954e-001	3.473509e+000	8.773639e-005
3.484500000007351e-001	3.464120e+000	8.147029e-005
3.596500000007588e-001	3.457296e+000	7.719131e-005
3.751500000007915e-001	3.446120e+000	7.064400e-005
3.890500000008208e-001	3.434124e+000	6.420117e-005
3.896500000008221e-001	3.433559e+000	6.391168e-005
4.020500000008482e-001	3.420894e+000	5.773162e-005
4.131500000008717e-001	3.407752e+000	5.190119e-005
4.196500000008854e-001	3.399125e+000	4.836796e-005
4.290500000009052e-001	3.385214e+000	4.311726e-005
4.376500000009234e-001	3.370730e+000	3.818125e-005
4.454500000009398e-001	3.355836e+000	3.360763e-005
4.496500000009487e-001	3.346997e+000	3.111077e-005
4.564500000009630e-001	3.331251e+000	2.702307e-005
4.626500000009761e-001	3.315069e+000	2.325288e-005
4.683500000009881e-001	3.298332e+000	1.975547e-005
4.736500000009993e-001	3.280838e+000	1.648066e-005
4.786500000010099e-001	3.262278e+000	1.337440e-005
4.796500000010120e-001	3.258291e+000	1.275147e-005
4.842500000010217e-001	3.238601e+000	9.879872e-006
4.886500000010310e-001	3.217397e+000	7.125371e-006
4.928500000010399e-001	3.194575e+000	4.490966e-006
4.969500000010485e-001	3.169398e+000	1.916254e-006
5.009500000010569e-001	3.141563e+000	-5.968990e-007
5.044500000010643e-001	3.114098e+000	-2.795653e-006
5.074500000010707e-001	3.087897e+000	-4.679263e-006
5.096500000010753e-001	3.066935e+000	-6.059559e-006
5.120500000010804e-001	3.042216e+000	-7.564006e-006
5.142500000010850e-001	3.017717e+000	-8.941580e-006
5.162500000010892e-001	2.993801e+000	-1.019244e-005
5.181500000010932e-001	2.969537e+000	-1.137928e-005
5.199500000010970e-001	2.945085e+000	-1.250215e-005
5.216500000011006e-001	2.920619e+000	-1.356118e-005
5.232500000011040e-001	2.896322e+000	-1.455650e-005
5.247500000011072e-001	2.872386e+000	-1.548828e-005
5.262500000011103e-001	2.847295e+000	-1.641868e-005
5.277500000011135e-001	2.821019e+000	-1.734763e-005
5.291500000011165e-001	2.795400e+000	-1.821325e-005
5.305500000011194e-001	2.768702e+000	-1.907747e-005
5.320500000011226e-001	2.738881e+000	-2.000178e-005
5.335500000011257e-001	2.707783e+000	-2.092431e-005
5.350500000011289e-001	2.675389e+000	-2.184498e-005
5.366500000011323e-001	2.639394e+000	-2.282489e-005
5.383500000011359e-001	2.599503e+000	-2.386351e-005
5.396500000011386e-001	2.567846e+000	-2.465592e-005
5.416500000011428e-001	2.517184e+000	-2.587179e-005
5.439500000011477e-001	2.455976e+000	-2.726497e-005
5.467500000011536e-001	2.377197e+000	-2.895330e-005
5.503500000011612e-001	2.269032e+000	-3.111077e-005
5.560500000011732e-001	2.082017e+000	-3.449378e-005
5.634500000011888e-001	1.810718e+000	-3.881912e-005
5.667500000011958e-001	1.679496e+000	-4.072149e-005
5.688500000012002e-001	1.592753e+000	-4.192302e-005
5.696500000012019e-001	1.559054e+000	-4.237884e-005
5.710500000012049e-001	1.499221e+000	-4.317394e-005
5.721500000012072e-001	1.451451e+000	-4.379632e-005
5.730500000012091e-001	1.411879e+000	-4.430399e-005
5.738500000012108e-001	1.376343e+000	-4.475406e-005
5.745500000012123e-001	1.344976e+000	-4.514694e-005
5.752500000012137e-001	1.313361e+000	-4.553895e-005
5.758500000012150e-001	1.286072e+000	-4.587426e-005
5.764500000012163e-001	1.258615e+000	-4.620891e-005
5.769500000012173e-001	1.235610e+000	-4.648729e-005
5.774500000012184e-001	1.212499e+000	-4.676521e-005
5.779500000012194e-001	1.189288e+000	-4.704267e-005
5.784500000012205e-001	1.165987e+000	-4.731966e-005
5.788500000012213e-001	1.147287e+000	-4.754092e-005
5.792500000012222e-001	1.128541e+000	-4.776188e-005
5.796500000012230e-001	1.109756e+000	-4.798254e-005
5.800500000012239e-001	1.090939e+000	-4.820289e-005
5.804500000012247e-001	1.072101e+000	-4.842294e-005
5.808500000012256e-001	1.053250e+000	-4.864268e-005
5.812500000012264e-001	1.034400e+000	-4.886212e-005
5.816500000012272e-001	1.015565e+000	-4.908125e-005
5.820500000012281e-001	9.967597e-001	-4.930007e-005
5.824500000012289e-001	9.780031e-001	-4.951857e-005
5.828500000012298e-001	9.593162e-001	-4.973677e-005
5.832500000012306e-001	9.407224e-001	-4.995464e-005
5.836500000012315e-001	9.222487e-001	-5.017221e-005
5.840500000012323e-001	9.039251e-001	-5.038946e-005
5.844500000012332e-001	8.857854e-001	-5.060638e-005
5.848500000012340e-001	8.678669e-001	-5.082299e-005
5.852500000012348e-001	8.502106e-001	-5.103928e-005
5.856500000012357e-001	8.328613e-001	-5.125524e-005
5.860500000012365e-001	8.158668e-001	-5.147089e-005
5.865500000012376e-001	7.952003e-001	-5.173998e-005
5.870500000012386e-001	7.752713e-001	-5.200856e-005
5.875500000012397e-001	7.561849e-001	-5.227663e-005
5.881500000012410e-001	7.345380e-001	-5.259764e-005
5.889500000012427e-001	7.080706e-001	-5.302448e-005
5.905500000012460e-001	6.643220e-001	-5.387413e-005
5.915500000012481e-001	6.433960e-001	-5.440241e-005
5.922500000012496e-001	6.315048e-001	-5.477092e-005
5.928500000012509e-001	6.229419e-001	-5.508595e-005
5.933500000012519e-001	6.168348e-001	-5.534787e-005
5.938500000012530e-001	6.115587e-001	-5.560925e-005
5.943500000012540e-001	6.070163e-001	-5.587008e-005
5.947500000012549e-001	6.038469e-001	-5.607834e-005
5.951500000012557e-001	6.010412e-001	-5.628626e-005
5.955500000012566e-001	5.985565e-001	-5.649382e-005
5.959500000012574e-001	5.963540e-001	-5.670101e-005
5.963500000012583e-001	5.943980e-001	-5.690785e-005
5.967500000012591e-001	5.926567e-001	-5.711434e-005
5.971500000012600e-001	5.911015e-001	-5.732046e-005
5.975500000012608e-001	5.897073e-001	-5.752622e-005
5.979500000012616e-001	5.884517e-001	-5.773162e-005
5.984500000012627e-001	5.870479e-001	-5.798785e-005
5.989500000012638e-001	5.857983e-001	-5.824351e-005
5.994500000012648e-001	5.846757e-001	-5.849859e-005
5.996500000012652e-001	5.842569e-001	-5.860047e-005
6.001500000012663e-001	5.832751e-001	-5.885474e-005
6.007500000012676e-001	5.822003e-001	-5.915911e-005
6.013500000012688e-001	5.812159e-001	-5.946263e-005
6.020500000012703e-001	5.801564e-001	-5.981567e-005
6.028500000012720e-001	5.790355e-001	-6.021773e-005
6.038500000012741e-001	5.777328e-001	-6.071816e-005
6.050500000012766e-001	5.762703e-001	-6.131552e-005
6.066500000012800e-001	5.744331e-001	-6.210656e-005
6.090500000012851e-001	5.718278e-001	-6.328134e-005
6.137500000012950e-001	5.670432e-001	-6.554001e-005
6.245500000013178e-001	5.571570e-001	-7.051046e-005
6.296500000013285e-001	5.529509e-001	-7.274614e-005
6.437500000013583e-001	5.426676e-001	-7.853169e-005
6.596500000013919e-001	5.331459e-001	-8.431474e-005
6.777500000014300e-001	5.246013e-001	-8.987174e-005
6.896500000014552e-001	5.201656e-001	-9.289646e-005
7.120500000015024e-001	5.141115e-001	-9.717059e-005
7.196500000015185e-001	5.126973e-001	-9.818727e-005
7.421500000015660e-001	5.103138e-001	-9.987838e-005
7.496500000015818e-001	5.101051e-001	-9.999974e-005
7.721500000016293e-001	5.112182e-001	-9.903310e-005
7.796500000016451e-001	5.121734e-001	-9.826969e-005
8.021500000016926e-001	5.168468e-001	-9.467953e-005
8.096500000017084e-001	5.190301e-001	-9.305837e-005
8.310500000017536e-001	5.271077e-001	-8.731092e-005
8.396500000017717e-001	5.311798e-001	-8.455041e-005
8.573500000018091e-001	5.412222e-001	-7.810193e-005
8.696500000018350e-001	5.496680e-001	-7.304722e-005
8.840500000018654e-001	5.613250e-001	-6.657774e-005
8.970500000018928e-001	5.737638e-001	-6.026788e-005
8.996500000018983e-001	5.765001e-001	-5.895629e-005
9.110500000019224e-001	5.896156e-001	-5.302448e-005
9.213500000019441e-001	6.032589e-001	-4.743033e-005
9.296500000019616e-001	6.157386e-001	-4.277680e-005
9.381500000019796e-001	6.301705e-001	-3.789070e-005
9.458500000019958e-001	6.449796e-001	-3.337081e-005
9.529500000020108e-001	6.604075e-001	-2.913367e-005
9.594500000020245e-001	6.763403e-001	-2.520356e-005
9.596500000020249e-001	6.768618e-001	-2.508193e-005
9.656500000020376e-001	6.934956e-001	-2.141557e-005
9.711500000020492e-001	7.106550e-001	-1.802788e-005
9.762500000020600e-001	7.285395e-001	-1.486724e-005
9.810500000020701e-001	7.474596e-001	-1.187852e-005
9.855500000020796e-001	7.674031e-001	-9.066734e-006
9.896500000020883e-001	7.877908e-001	-6.498513e-006
9.938500000020971e-001	8.112828e-001	-3.863197e-006
9.978500000021056e-001	8.365633e-001	-1.350844e-006
9.999500000021100e-001	8.511441e-001	-3.141592e-008
1.000000000000000e+000	8.515030e-001	-7.347638e-020
Step Information: X=2  (Run: 2/5)
0.000000000000000e+000	8.515030e-001	-4.898425e-020
3.650000000007481e-003	8.793443e-001	2.293161e-006
6.750000000014023e-003	9.057530e-001	4.239878e-006
9.450000000019720e-003	9.310941e-001	5.934121e-006
1.185000000002479e-002	9.556463e-001	7.438696e-006
1.405000000002943e-002	9.799798e-001	8.816412e-006
1.605000000003365e-002	1.003734e+000	1.006743e-005
1.795000000003766e-002	1.027835e+000	1.125442e-005
1.975000000004146e-002	1.052125e+000	1.237747e-005
2.145000000004504e-002	1.076432e+000	1.343667e-005
2.305000000004842e-002	1.100572e+000	1.443216e-005
2.455000000005159e-002	1.124357e+000	1.536412e-005
2.605000000005475e-002	1.149292e+000	1.629471e-005
2.755000000005792e-002	1.175408e+000	1.722386e-005
2.895000000006087e-002	1.200875e+000	1.808968e-005
2.955000000006214e-002	1.212117e+000	1.846032e-005
3.095000000006509e-002	1.239126e+000	1.932412e-005
3.245000000006826e-002	1.269286e+000	2.024796e-005
3.395000000007142e-002	1.300729e+000	2.117001e-005
3.545000000007459e-002	1.333470e+000	2.209017e-005
3.705000000007797e-002	1.369839e+000	2.306951e-005
3.875000000008155e-002	1.410131e+000	2.410750e-005
4.065000000008556e-002	1.457187e+000	2.526435e-005
4.275000000008999e-002	1.511695e+000	2.653878e-005
4.525000000009527e-002	1.580017e+000	2.804992e-005
4.835000000010181e-002	1.669922e+000	2.991407e-005
5.275000000011110e-002	1.807364e+000	3.254031e-005
5.955000000012545e-002	2.042315e+000	3.654942e-005
6.475000000013642e-002	2.240229e+000	3.957058e-005
6.755000000014233e-002	2.353254e+000	4.118006e-005
6.945000000014634e-002	2.432487e+000	4.226499e-005
7.085000000014929e-002	2.492165e+000	4.306056e-005
7.195000000015162e-002	2.539815e+000	4.368331e-005
7.295000000015373e-002	2.583703e+000	4.424765e-005
7.375000000015541e-002	2.619197e+000	4.469786e-005
7.445000000015689e-002	2.650528e+000	4.509087e-005
7.515000000015837e-002	2.682107e+000	4.548300e-005
7.575000000015963e-002	2.709368e+000	4.581842e-005
7.635000000016090e-002	2.736798e+000	4.615318e-005
7.685000000016196e-002	2.759781e+000	4.643165e-005
7.735000000016301e-002	2.782871e+000	4.670966e-005
7.785000000016407e-002	2.806062e+000	4.698721e-005
7.835000000016512e-002	2.829346e+000	4.726430e-005
7.875000000016597e-002	2.848033e+000	4.748564e-005
7.915000000016681e-002	2.866768e+000	4.770667e-005
7.955000000016765e-002	2.885545e+000	4.792740e-005
7.995000000016850e-002	2.904354e+000	4.814783e-005
8.035000000016934e-002	2.923188e+000	4.836796e-005
8.075000000017019e-002	2.942037e+000	4.858778e-005
8.115000000017103e-002	2.960888e+000	4.880729e-005
8.155000000017187e-002	2.979728e+000	4.902649e-005
8.195000000017272e-002	2.998543e+000	4.924539e-005
8.235000000017356e-002	3.017313e+000	4.946398e-005
8.275000000017441e-002	3.036020e+000	4.968225e-005
8.315000000017525e-002	3.054639e+000	4.990021e-005
8.355000000017610e-002	3.073146e+000	5.011785e-005
8.395000000017694e-002	3.091510e+000	5.033517e-005
8.435000000017778e-002	3.109699e+000	5.055218e-005
8.475000000017863e-002	3.127676e+000	5.076887e-005
8.515000000017947e-002	3.145402e+000	5.098524e-005
8.555000000018032e-002	3.162833e+000	5.120128e-005
8.595000000018116e-002	3.179921e+000	5.141701e-005
8.645000000018221e-002	3.200722e+000	5.168620e-005
8.695000000018327e-002	3.220807e+000	5.195489e-005
8.745000000018433e-002	3.240070e+000	5.222306e-005
8.805000000018559e-002	3.261956e+000	5.254419e-005
8.875000000018707e-002	3.285585e+000	5.291789e-005
8.955000000018876e-002	3.309818e+000	5.334373e-005
9.125000000019234e-002	3.350830e+000	5.424415e-005
9.205000000019403e-002	3.365316e+000	5.466574e-005
9.265000000019530e-002	3.374361e+000	5.498102e-005
9.315000000019635e-002	3.380828e+000	5.524317e-005
9.365000000019741e-002	3.386424e+000	5.550476e-005
9.415000000019846e-002	3.391249e+000	5.576581e-005
9.455000000019931e-002	3.394617e+000	5.597425e-005
9.495000000020015e-002	3.397599e+000	5.618235e-005
9.535000000020100e-002	3.400239e+000	5.639008e-005
9.575000000020184e-002	3.402578e+000	5.659746e-005
9.615000000020268e-002	3.404653e+000	5.680448e-005
9.655000000020353e-002	3.406498e+000	5.701114e-005
9.695000000020437e-002	3.408143e+000	5.721744e-005
9.735000000020522e-002	3.409614e+000	5.742339e-005
9.775000000020606e-002	3.410937e+000	5.762896e-005
9.815000000020691e-002	3.412130e+000	5.783418e-005
9.865000000020796e-002	3.413469e+000	5.809018e-005
9.915000000020902e-002	3.414665e+000	5.834561e-005
9.965000000021007e-002	3.415743e+000	5.860047e-005
1.001500000002111e-001	3.416725e+000	5.885474e-005
1.007500000002124e-001	3.417800e+000	5.915911e-005
1.013500000002137e-001	3.418784e+000	5.946263e-005
1.020500000002151e-001	3.419843e+000	5.981567e-005
1.028500000002168e-001	3.420964e+000	6.021773e-005
1.038500000002189e-001	3.422267e+000	6.071816e-005
1.050500000002215e-001	3.423730e+000	6.131552e-005
1.066500000002248e-001	3.425567e+000	6.210656e-005
1.090500000002299e-001	3.428172e+000	6.328134e-005
1.137500000002398e-001	3.432957e+000	6.554001e-005
1.195500000002521e-001	3.438440e+000	6.824832e-005
1.322500000002789e-001	3.449089e+000	7.385729e-005
1.467500000003095e-001	3.459287e+000	7.968463e-005
1.495500000003154e-001	3.461043e+000	8.073518e-005
1.662500000003506e-001	3.470235e+000	8.647134e-005
1.795500000003787e-001	3.476127e+000	9.036195e-005
2.008500000004236e-001	3.483222e+000	9.526932e-005
2.095500000004420e-001	3.485354e+000	9.678760e-005
2.319500000004893e-001	3.488935e+000	9.935757e-005
2.395500000005053e-001	3.489546e+000	9.978451e-005
2.620500000005528e-001	3.489605e+000	9.971351e-005
2.695500000005686e-001	3.489044e+000	9.924651e-005
2.920500000006161e-001	3.485592e+000	9.652996e-005
2.995500000006319e-001	3.483835e+000	9.519263e-005
3.220500000006794e-001	3.476634e+000	8.992678e-005
3.295500000006952e-001	3.473552e+000	8.776652e-005
3.483500000007349e-001	3.464176e+000	8.150670e-005
3.595500000007585e-001	3.457361e+000	7.723123e-005
3.750500000007913e-001	3.446199e+000	7.068845e-005
