time	V(n001)	-I(V1)
Step Information: X=1  (Run: 1/5)
0.000000000000000e+000	0.000000e+000	0.000000e+000
1.081420097034425e-002	6.789471e-002	4.765155e-005
2.253295097034425e-002	1.411049e-001	9.991590e-005
3.327513847034425e-002	2.075521e-001	1.490639e-004
4.304076347034425e-002	2.671463e-001	1.954720e-004
5.280638847034425e-002	3.257351e-001	2.444097e-004
6.159545097034425e-002	3.774229e-001	2.916503e-004
6.940795097034425e-002	4.224065e-001	3.373217e-004
7.624388847034425e-002	4.609360e-001	3.812913e-004
8.307982597034425e-002	4.986152e-001	4.304974e-004
8.893920097034425e-002	5.301823e-001	4.784616e-004
9.382201347034425e-002	5.559412e-001	5.240373e-004
9.870482597034425e-002	5.811768e-001	5.765429e-004
1.026110759703443e-001	6.009725e-001	6.252257e-004
1.065173259703443e-001	6.204063e-001	6.818728e-004
1.094470134703443e-001	6.347370e-001	7.312010e-004
1.123767009703443e-001	6.488526e-001	7.881728e-004
1.153063884703443e-001	6.627485e-001	8.550561e-004
1.182360759703443e-001	6.764197e-001	9.350773e-004
1.201892009703443e-001	6.854067e-001	9.979755e-004
1.221423259703443e-001	6.942906e-001	1.070726e-003
1.240954509703443e-001	7.030700e-001	1.155965e-003
1.260485759703443e-001	7.117434e-001	1.257320e-003
1.270251384703443e-001	7.160400e-001	1.315560e-003
1.280017009703443e-001	7.203096e-001	1.379901e-003
1.289782634703443e-001	7.245522e-001	1.451344e-003
1.299548259703443e-001	7.287675e-001	1.531113e-003
1.309313884703443e-001	7.329552e-001	1.620712e-003
1.319079509703443e-001	7.371155e-001	1.722011e-003
1.328845134703443e-001	7.412480e-001	1.837347e-003
1.338610759703443e-001	7.453525e-001	1.969677e-003
1.348376384703443e-001	7.494290e-001	2.122771e-003
1.358142009703443e-001	7.534773e-001	2.301476e-003
1.367907634703443e-001	7.574972e-001	2.512077e-003
1.377673259703443e-001	7.614886e-001	2.762747e-003
1.388659587828443e-001	7.659516e-001	3.090152e-003
1.397204509703443e-001	7.693923e-001	3.410513e-003
1.405749431578443e-001	7.728106e-001	3.792719e-003
1.414294353453443e-001	7.762069e-001	4.250569e-003
1.422839275328443e-001	7.795806e-001	4.798993e-003
1.430163494078443e-001	7.824547e-001	5.350770e-003
1.438708415953443e-001	7.857867e-001	6.097876e-003
1.448474040953443e-001	7.895668e-001	7.074804e-003
1.468005290953443e-001	7.970380e-001	9.150375e-003
1.477160564390943e-001	8.004990e-001	9.981376e-003
1.486926189390943e-001	8.041611e-001	1.066324e-002
1.497912517515943e-001	8.082444e-001	1.117970e-002
1.512560955015943e-001	8.136231e-001	1.156665e-002
1.532092205015943e-001	8.206962e-001	1.184389e-002
1.590685955015943e-001	8.411698e-001	1.220996e-002
1.805529705015943e-001	9.062924e-001	1.316716e-002
2.030139080015943e-001	9.567285e-001	1.391495e-002
2.254748455015943e-001	9.881414e-001	1.439207e-002
2.479357830015943e-001	9.999065e-001	1.459043e-002
2.703967205015943e-001	9.917899e-001	1.450788e-002
2.928576580015943e-001	9.639529e-001	1.414837e-002
3.143420330015943e-001	9.193800e-001	1.355476e-002
3.328967205015943e-001	8.673856e-001	1.285680e-002
3.494982830015943e-001	8.108582e-001	1.209760e-002
3.651232830015943e-001	7.495915e-001	1.127744e-002
3.787951580015943e-001	6.900394e-001	1.048478e-002
3.924670330015943e-001	6.253984e-001	9.631006e-003
4.061389080015943e-001	5.561453e-001	8.724939e-003
4.217639080015943e-001	4.720078e-001	7.634617e-003
4.393420330015943e-001	3.719617e-001	6.335597e-003
4.471545330015943e-001	3.259672e-001	5.722004e-003
4.530139080015943e-001	2.909498e-001	5.238335e-003
4.578967205015943e-001	2.614654e-001	4.814520e-003
4.618029705015943e-001	2.376994e-001	4.458665e-003
4.657092205015943e-001	2.137902e-001	4.085393e-003
4.696154705015943e-001	1.897523e-001	3.692710e-003
4.725451580015943e-001	1.716480e-001	3.384577e-003
4.754748455015943e-001	1.534855e-001	3.064412e-003
4.784045330015943e-001	1.352711e-001	2.732237e-003
4.813342205015943e-001	1.170108e-001	2.388423e-003
4.842639080015943e-001	9.871083e-002	2.033704e-003
4.871935955015943e-001	8.037746e-002	1.669158e-003
4.901232830015943e-001	6.201684e-002	1.296176e-003
4.930529705015943e-001	4.363520e-002	9.164189e-004
4.959826580015943e-001	2.523879e-002	5.317534e-004
4.989123455015943e-001	6.833817e-003	1.441962e-004
5.008654705015943e-001	-5.437834e-003	-1.147453e-004
5.037951580015943e-001	-2.384320e-002	-5.024364e-004
5.067248455015943e-001	-4.224048e-002	-8.873926e-004
5.096545330015943e-001	-6.062345e-002	-1.267589e-003
5.125842205015943e-001	-7.898588e-002	-1.641144e-003
5.155139080015943e-001	-9.732155e-002	-2.006382e-003
5.184435955015943e-001	-1.156242e-001	-2.361887e-003
5.213732830015943e-001	-1.338878e-001	-2.706557e-003
5.243029705015943e-001	-1.521059e-001	-3.039632e-003
5.272326580015943e-001	-1.702725e-001	-3.360714e-003
5.301623455015943e-001	-1.883814e-001	-3.669753e-003
5.340685955015943e-001	-2.124263e-001	-4.063590e-003
5.379748455015943e-001	-2.363432e-001	-4.437919e-003
5.428576580015943e-001	-2.660375e-001	-4.881426e-003
5.477404705015943e-001	-2.954813e-001	-5.301996e-003
5.535998455015943e-001	-3.304445e-001	-5.782637e-003
5.623889080015943e-001	-3.820349e-001	-6.467824e-003
5.838732830015943e-001	-5.029305e-001	-8.033611e-003
5.926623455015943e-001	-5.498699e-001	-8.607596e-003
5.955920330015943e-001	-5.651508e-001	-8.707291e-003
5.975451580015943e-001	-5.752320e-001	-8.651099e-003
5.985217205015943e-001	-5.802401e-001	-8.548430e-003
5.994982830015943e-001	-5.852265e-001	-8.372372e-003
6.005969158140943e-001	-5.908152e-001	-8.090850e-003
6.016955486265943e-001	-5.963699e-001	-7.658435e-003
6.025500408140943e-001	-6.006709e-001	-7.243580e-003
6.042590251890943e-001	-6.092210e-001	-6.288101e-003
6.059680095640943e-001	-6.177008e-001	-5.332774e-003
6.068225017515943e-001	-6.219141e-001	-4.902201e-003
6.076769939390943e-001	-6.261095e-001	-4.513965e-003
6.085314861265943e-001	-6.302867e-001	-4.169171e-003
6.090197673765943e-001	-6.326634e-001	-3.995728e-003
6.099963298765943e-001	-6.374002e-001	-3.682289e-003
6.109728923765943e-001	-6.421161e-001	-3.407012e-003
6.119494548765943e-001	-6.468077e-001	-3.169983e-003
6.129260173765943e-001	-6.514750e-001	-2.965280e-003
6.139025798765943e-001	-6.561178e-001	-2.787705e-003
6.148791423765943e-001	-6.607358e-001	-2.632850e-003
6.158557048765943e-001	-6.653290e-001	-2.497046e-003
6.168322673765943e-001	-6.698972e-001	-2.377268e-003
6.178088298765943e-001	-6.744401e-001	-2.271028e-003
6.187853923765943e-001	-6.789576e-001	-2.176281e-003
6.197619548765943e-001	-6.834496e-001	-2.091343e-003
6.207385173765943e-001	-6.879158e-001	-2.014821e-003
6.226916423765943e-001	-6.967704e-001	-1.882597e-003
6.246447673765943e-001	-7.055202e-001	-1.772454e-003
6.265978923765943e-001	-7.141635e-001	-1.679320e-003
6.285510173765943e-001	-7.226995e-001	-1.599525e-003
6.314807048765943e-001	-7.352988e-001	-1.499111e-003
6.344103923765943e-001	-7.476490e-001	-1.416283e-003
6.373400798765943e-001	-7.597458e-001	-1.346669e-003
6.412463298765943e-001	-7.754739e-001	-1.269287e-003
6.451525798765943e-001	-7.907348e-001	-1.205154e-003
6.500353923765943e-001	-8.091401e-001	-1.138711e-003
6.549182048765943e-001	-8.267838e-001	-1.083609e-003
6.607775798765943e-001	-8.469278e-001	-1.028533e-003
6.676135173765943e-001	-8.689765e-001	-9.755127e-004
6.754260173765943e-001	-8.922101e-001	-9.256956e-004
6.851916423765943e-001	-9.182236e-001	-8.749623e-004
6.969103923765943e-001	-9.448700e-001	-8.258558e-004
7.115588298765943e-001	-9.709633e-001	-7.764838e-004
7.320666423765943e-001	-9.936491e-001	-7.209880e-004
7.545275798765943e-001	-9.995860e-001	-6.698144e-004
7.769885173765943e-001	-9.856475e-001	-6.225064e-004
7.906603923765943e-001	-9.675338e-001	-5.938869e-004
8.131213298765943e-001	-9.223698e-001	-5.453656e-004
8.355822673765943e-001	-8.588659e-001	-4.936031e-004
8.580432048765943e-001	-7.782845e-001	-4.377295e-004
8.805041423765943e-001	-6.822281e-001	-3.774556e-004
9.029650798765943e-001	-5.726066e-001	-3.129173e-004
9.254260173765943e-001	-4.515996e-001	-2.445641e-004
9.478869548765943e-001	-3.216132e-001	-1.730751e-004
9.703478923765943e-001	-1.852320e-001	-9.929323e-005
9.918322673765943e-001	-5.129637e-002	-2.745090e-005
9.996447673765943e-001	-2.231978e-003	-1.194262e-006
1.000000000000000e+000	-2.449213e-016	-1.310495e-019
Step Information: X=2  (Run: 2/5)
0.000000000000000e+000	0.000000e+000	0.000000e+000
6.399999818995639e-008	8.042477e-007	5.629734e-010
8.825069235172123e-003	1.106709e-001	7.773984e-005
1.859069423517212e-002	2.314961e-001	1.646129e-004
2.737975673517212e-002	3.373127e-001	2.445576e-004
3.568053798517212e-002	4.334975e-001	3.228958e-004
4.300475673517212e-002	5.144860e-001	3.958552e-004
4.935241298517212e-002	5.811768e-001	4.636997e-004
5.521178798517212e-002	6.394663e-001	5.321139e-004
6.009460048517212e-002	6.854067e-001	5.953545e-004
6.448913173517212e-002	7.245522e-001	6.591992e-004
6.839538173517212e-002	7.574972e-001	7.236393e-004
7.181335048517212e-002	7.848297e-001	7.881738e-004
7.523131923517212e-002	8.107145e-001	8.631161e-004
7.816100673517212e-002	8.317131e-001	9.386226e-004
8.060241298517212e-002	8.483520e-001	1.012255e-003
8.304381923517212e-002	8.641925e-001	1.098882e-003
8.499694423517212e-002	8.762800e-001	1.180477e-003
8.695006923517212e-002	8.878396e-001	1.276445e-003
8.890319423517212e-002	8.988644e-001	1.391342e-003
9.036803798517212e-002	9.067780e-001	1.493803e-003
9.183288173517212e-002	9.143844e-001	1.614477e-003
9.329772548517212e-002	9.216810e-001	1.758772e-003
9.476256923517212e-002	9.286653e-001	1.934336e-003
9.573913173517212e-002	9.331468e-001	2.074040e-003
9.671569423517212e-002	9.374877e-001	2.236996e-003
9.769225673517212e-002	9.416875e-001	2.429198e-003
9.866881923517212e-002	9.457455e-001	2.658690e-003
9.915710048517212e-002	9.477211e-001	2.790696e-003
9.964538173517212e-002	9.496611e-001	2.936412e-003
1.001336629851721e-001	9.515653e-001	3.097858e-003
1.006219442351721e-001	9.534336e-001	3.277406e-003
1.011102254851721e-001	9.552661e-001	3.477853e-003
1.015985067351721e-001	9.570626e-001	3.702480e-003
1.020867879851721e-001	9.588231e-001	3.955130e-003
1.025750692351721e-001	9.605474e-001	4.240257e-003
1.032464559539221e-001	9.628673e-001	4.684864e-003
1.036737020476721e-001	9.643028e-001	5.016790e-003
1.041009481414221e-001	9.657106e-001	5.387729e-003
1.045281942351721e-001	9.670905e-001	5.801873e-003
1.049554403289221e-001	9.684426e-001	6.262979e-003
1.053826864226721e-001	9.697668e-001	6.773725e-003
1.060540731414221e-001	9.717922e-001	7.675645e-003
1.069696004851721e-001	9.744408e-001	9.076722e-003
1.082513387664221e-001	9.779326e-001	1.110689e-002
1.090142782195471e-001	9.798898e-001	1.213784e-002
1.096856649382971e-001	9.815388e-001	1.285178e-002
1.098687704070471e-001	9.819757e-001	1.301082e-002
1.106011922820471e-001	9.836656e-001	1.350510e-002
1.115777547820471e-001	9.857998e-001	1.392830e-002
1.130425985320471e-001	9.887227e-001	1.422744e-002
1.159722860320471e-001	9.935626e-001	1.441013e-002
1.262261922820471e-001	9.998719e-001	1.451962e-002
1.374566610320471e-001	9.877641e-001	1.435088e-002
1.486871297820471e-001	9.560160e-001	1.389708e-002
1.594293172820471e-001	9.078487e-001	1.320409e-002
1.696832235320471e-001	8.464463e-001	1.231768e-002
1.794488485320471e-001	7.749022e-001	1.128243e-002
1.887261922820471e-001	6.961210e-001	1.014032e-002
1.975152547820471e-001	6.127498e-001	8.929797e-003
2.058160360320471e-001	5.271356e-001	7.685076e-003
2.141168172820471e-001	4.357909e-001	6.355551e-003
2.219293172820471e-001	3.454733e-001	5.039745e-003
2.297418172820471e-001	2.518287e-001	3.674458e-003
2.375543172820471e-001	1.557588e-001	2.273037e-003
2.448785360320471e-001	6.431319e-002	9.386156e-004
2.502496297820471e-001	-3.136906e-003	-4.578214e-005
2.561090047820471e-001	-7.669192e-002	-1.119269e-003
2.634332235320471e-001	-1.680047e-001	-2.451708e-003
2.712457235320471e-001	-2.638187e-001	-3.849314e-003
2.790582235320471e-001	-3.570920e-001	-5.209072e-003
2.868707235320471e-001	-4.469264e-001	-6.517700e-003
2.951715047820471e-001	-5.376402e-001	-7.837879e-003
3.034722860320471e-001	-6.225094e-001	-9.071572e-003
3.122613485320471e-001	-7.049764e-001	-1.026646e-002
3.176324422820471e-001	-7.512036e-001	-1.088135e-002
3.195855672820471e-001	-7.671760e-001	-1.098054e-002
3.210504110320471e-001	-7.788525e-001	-1.088367e-002
3.220269735320471e-001	-7.864904e-001	-1.065471e-002
3.225152547820471e-001	-7.902651e-001	-1.046871e-002
3.234918172820471e-001	-7.977315e-001	-9.936792e-003
3.243463094695471e-001	-8.041609e-001	-9.265056e-003
3.253839071257971e-001	-8.118423e-001	-8.261549e-003
3.269708211882971e-001	-8.233243e-001	-6.639663e-003
3.278253133757971e-001	-8.293712e-001	-5.855708e-003
3.286187704070471e-001	-8.349004e-001	-5.220232e-003
3.290460165007971e-001	-8.378399e-001	-4.919429e-003
3.295342977507971e-001	-8.411698e-001	-4.606322e-003
3.300225790007971e-001	-8.444719e-001	-4.319742e-003
3.305108602507971e-001	-8.477423e-001	-4.061252e-003
3.309991415007971e-001	-8.509808e-001	-3.828162e-003
3.314874227507971e-001	-8.541872e-001	-3.617839e-003
3.319757040007971e-001	-8.573614e-001	-3.427810e-003
3.324639852507971e-001	-8.605034e-001	-3.255811e-003
3.334405477507971e-001	-8.666901e-001	-2.957977e-003
3.344171102507971e-001	-8.727462e-001	-2.710655e-003
3.353936727507971e-001	-8.786709e-001	-2.503239e-003
3.363702352507971e-001	-8.844633e-001	-2.327586e-003
3.373467977507971e-001	-8.901225e-001	-2.177439e-003
3.388116415007971e-001	-8.983597e-001	-1.989783e-003
3.402764852507971e-001	-9.062924e-001	-1.836860e-003
3.417413290007971e-001	-9.139181e-001	-1.710251e-003
3.432061727507971e-001	-9.212341e-001	-1.603952e-003
3.451592977507971e-001	-9.305028e-001	-1.486429e-003
3.471124227507971e-001	-9.392110e-001	-1.389981e-003
3.495538290007971e-001	-9.493001e-001	-1.291422e-003
3.519952352507971e-001	-9.584957e-001	-1.211056e-003
3.549249227507971e-001	-9.683390e-001	-1.132215e-003
3.583428915007971e-001	-9.781634e-001	-1.057859e-003
3.622491415007971e-001	-9.871810e-001	-9.893847e-004
3.666436727507971e-001	-9.944823e-001	-9.270404e-004
3.715264852507971e-001	-9.990381e-001	-8.703264e-004
3.773858602507971e-001	-9.995412e-001	-8.139837e-004
3.842217977507971e-001	-9.932836e-001	-7.586754e-004
3.891046102507971e-001	-9.843242e-001	-7.236133e-004
3.988702352507971e-001	-9.553387e-001	-6.599857e-004
4.101007040007971e-001	-9.042790e-001	-5.920120e-004
4.213311727507971e-001	-8.352391e-001	-5.252849e-004
4.325616415007971e-001	-7.495915e-001	-4.573904e-004
4.437921102507971e-001	-6.490395e-001	-3.871489e-004
4.550225790007971e-001	-5.355822e-001	-3.141399e-004
4.662530477507971e-001	-4.114756e-001	-2.384410e-004
4.774835165007971e-001	-2.791874e-001	-1.604672e-004
4.887139852507971e-001	-1.413479e-001	-8.085936e-005
4.994561727507971e-001	-6.833817e-003	-3.903293e-006
4.999444540007971e-001	-6.980089e-004	-3.986815e-007
5.000000000000000e-001	-2.449213e-016	-1.398914e-019
Step Information: X=3  (Run: 3/5)
0.000000000000000e+000	0.000000e+000	0.000000e+000
3.199999909497819e-008	1.005310e-006	7.037168e-010
4.168393992586063e-003	1.305788e-001	9.158198e-005
8.660581492586063e-003	2.687331e-001	1.896977e-004
1.315276899258605e-002	4.015442e-001	2.866432e-004
1.764495649258603e-002	5.263711e-001	3.819392e-004
2.213714399258602e-002	6.407318e-001	4.752692e-004
2.662933149258600e-002	7.423525e-001	5.665452e-004
3.112151899258598e-002	8.292125e-001	6.559858e-004
3.561370649258604e-002	8.995849e-001	7.442157e-004
4.010589399258611e-002	9.520704e-001	8.324023e-004
4.459808149258617e-002	9.856251e-001	9.224548e-004
4.909026899258624e-002	9.995822e-001	1.017332e-003
5.358245649258630e-002	9.936640e-001	1.121542e-003
5.475433149258632e-002	9.888570e-001	1.151043e-003
5.846526899258637e-002	9.648357e-001	1.253525e-003
6.178558149258642e-002	9.322264e-001	1.361120e-003
6.471526899258645e-002	8.950233e-001	1.473891e-003
6.744964399258649e-002	8.534576e-001	1.599876e-003
6.998870649258653e-002	8.092179e-001	1.740686e-003
7.233245649258656e-002	7.638066e-001	1.896859e-003
7.467620649258659e-002	7.142562e-001	2.084112e-003
7.701995649258663e-002	6.608353e-001	2.307338e-003
7.975433149258666e-002	5.940060e-001	2.612609e-003
8.346526899258672e-002	4.964015e-001	3.049575e-003
8.502776899258674e-002	4.532088e-001	3.193751e-003
8.639495649258676e-002	4.145159e-001	3.268108e-003
8.756683149258678e-002	3.807393e-001	3.276518e-003
8.854339399258679e-002	3.521959e-001	3.236107e-003
8.951995649258680e-002	3.233212e-001	3.148428e-003
9.049651899258682e-002	2.941421e-001	3.012408e-003
9.147308149258683e-002	2.646862e-001	2.829640e-003
9.244964399258684e-002	2.349811e-001	2.603867e-003
9.342620649258686e-002	2.050549e-001	2.340219e-003
9.459808149258688e-002	1.688913e-001	1.982004e-003
9.576995649258689e-002	1.324987e-001	1.587660e-003
9.694183149258691e-002	9.592656e-002	1.166580e-003
9.811370649258693e-002	5.922443e-002	7.271654e-004
9.928558149258694e-002	2.244202e-002	2.768945e-004
1.006527689925870e-001	-2.050571e-002	-2.530375e-004
1.018246439925870e-001	-5.729095e-002	-7.036853e-004
1.029965189925870e-001	-9.399855e-002	-1.143848e-003
1.041683939925870e-001	-1.305788e-001	-1.566090e-003
1.053402689925870e-001	-1.669820e-001	-1.962064e-003
1.065121439925870e-001	-2.031590e-001	-2.322423e-003
1.074887064925871e-001	-2.330982e-001	-2.588269e-003
1.084652689925871e-001	-2.628180e-001	-2.816592e-003
1.094418314925871e-001	-2.922904e-001	-3.002203e-003
1.104183939925871e-001	-3.214878e-001	-3.141258e-003
1.113949564925871e-001	-3.503826e-001	-3.231995e-003
1.123715189925871e-001	-3.789476e-001	-3.275305e-003
1.133480814925871e-001	-4.071560e-001	-3.274814e-003
1.145199564925872e-001	-4.404980e-001	-3.224883e-003
1.160824564925872e-001	-4.840175e-001	-3.096061e-003
1.186215189925872e-001	-5.522044e-001	-2.808293e-003
1.219418314925873e-001	-6.360089e-001	-2.418078e-003
1.242855814925873e-001	-6.910532e-001	-2.178372e-003
1.266293314925872e-001	-7.423525e-001	-1.975633e-003
1.289730814925871e-001	-7.896290e-001	-1.806406e-003
1.315121439925869e-001	-8.360089e-001	-1.654314e-003
1.342465189925868e-001	-8.800031e-001	-1.519031e-003
1.371762064925866e-001	-9.199304e-001	-1.398864e-003
1.404965189925864e-001	-9.557518e-001	-1.285268e-003
1.442074564925862e-001	-9.834784e-001	-1.178212e-003
1.483090189925860e-001	-9.985799e-001	-1.076151e-003
1.528012064925857e-001	-9.961209e-001	-9.765489e-004
1.572933939925855e-001	-9.738555e-001	-8.841488e-004
1.617855814925852e-001	-9.322264e-001	-7.951732e-004
1.662777689925850e-001	-8.720612e-001	-7.071527e-004
1.707699564925847e-001	-7.945564e-001	-6.185203e-004
1.719418314925846e-001	-7.716695e-001	-5.951722e-004
1.764340189925844e-001	-6.745379e-001	-5.045207e-004
1.809262064925841e-001	-5.639940e-001	-4.118474e-004
1.854183939925839e-001	-4.422359e-001	-3.171519e-004
1.899105814925836e-001	-3.116845e-001	-2.206857e-004
1.944027689925834e-001	-1.749358e-001	-1.228827e-004
1.986996439925831e-001	-4.084014e-002	-2.859363e-005
1.998715189925830e-001	-4.036310e-003	-2.825436e-006
2.000000000000000e-001	-2.449213e-016	-1.714449e-019
Step Information: X=4  (Run: 4/5)
0.000000000000000e+000	0.000000e+000	0.000000e+000
1.562499996055067e-008	9.817477e-007	6.872234e-010
2.081124999676832e-003	1.303874e-001	9.135900e-005
4.327218749676832e-003	2.685472e-001	1.887656e-004
6.573312499676824e-003	4.013674e-001	2.836687e-004
8.819406249676816e-003	5.262069e-001	3.747894e-004
1.106549999967681e-002	6.405836e-001	4.608707e-004
1.331159374967680e-002	7.422231e-001	5.406782e-004
1.555768749967679e-002	8.291047e-001	6.129978e-004
1.780378124967682e-002	8.995006e-001	6.766265e-004
2.004987499967685e-002	9.520112e-001	7.303589e-004
2.229596874967689e-002	9.855925e-001	7.729710e-004
2.454206249967692e-002	9.995767e-001	8.032030e-004
2.678815624967695e-002	9.936857e-001	8.197490e-004
2.747174999967696e-002	9.879552e-001	8.218635e-004
2.962018749967699e-002	9.581505e-001	8.190164e-004
3.176862499967702e-002	9.109125e-001	8.008610e-004
3.372174999967705e-002	8.535582e-001	7.701520e-004
3.557721874967707e-002	7.871646e-001	7.278091e-004
