time	V(n001)	-I(V1)
Step Information: X=1  (Run: 1/5)
0.000000000000000e+000	-2.449213e-016	-1.310418e-019
2.050781250000000e-002	1.284933e-001	6.880918e-005
4.199218750000000e-002	2.607843e-001	1.400461e-004
6.347656250000000e-002	3.883304e-001	2.095663e-004
8.496093750000000e-002	5.088110e-001	2.765800e-004
1.064453125000000e-001	6.200339e-001	3.404101e-004
1.279296875000000e-001	7.199754e-001	4.005401e-004
1.494140625000000e-001	8.068172e-001	4.566707e-004
1.708984375000000e-001	8.789791e-001	5.087943e-004
1.923828125000000e-001	9.351483e-001	5.572927e-004
2.138671875000000e-001	9.743027e-001	6.030734e-004
2.353515625000000e-001	9.957299e-001	6.477677e-004
2.568359375000000e-001	9.990401e-001	6.940473e-004
2.783203125000000e-001	9.841731e-001	7.462009e-004
2.958984375000000e-001	9.586674e-001	7.980877e-004
3.095703125000000e-001	9.307319e-001	8.485069e-004
3.193359375000000e-001	9.065616e-001	8.928808e-004
3.271484375000000e-001	8.847638e-001	9.355592e-004
3.349609375000000e-001	8.608345e-001	9.870518e-004
3.408203125000000e-001	8.415233e-001	1.033491e-003
3.466796875000000e-001	8.210716e-001	1.089021e-003
3.525390625000000e-001	7.995071e-001	1.156941e-003
3.564453125000000e-001	7.845271e-001	1.211550e-003
3.603515625000000e-001	7.690744e-001	1.276196e-003
3.642578125000000e-001	7.531585e-001	1.354197e-003
3.662109375000000e-001	7.450297e-001	1.399673e-003
3.681640625000000e-001	7.367888e-001	1.450544e-003
3.701171875000000e-001	7.284369e-001	1.507885e-003
3.720703125000000e-001	7.199754e-001	1.573076e-003
3.740234375000000e-001	7.114054e-001	1.647912e-003
3.759765625000000e-001	7.027283e-001	1.734768e-003
3.779296875000000e-001	6.939453e-001	1.836833e-003
3.798828125000000e-001	6.850579e-001	1.958480e-003
3.818359375000000e-001	6.760672e-001	2.105809e-003
3.837890625000000e-001	6.669748e-001	2.287508e-003
3.857421875000000e-001	6.577820e-001	2.516145e-003
3.879394531250000e-001	6.473452e-001	2.830060e-003
3.894042968750000e-001	6.403020e-001	3.113403e-003
3.901367187500000e-001	6.367589e-001	3.281465e-003
3.913574218750000e-001	6.308285e-001	3.598121e-003
3.928222656250000e-001	6.236596e-001	4.070755e-003
3.939208984375000e-001	6.182496e-001	4.495879e-003
3.947753906250000e-001	6.140208e-001	4.875228e-003
3.956298828125000e-001	6.097744e-001	5.294592e-003
3.973388671875000e-001	6.012288e-001	6.221133e-003
3.990478515625000e-001	5.926140e-001	7.145985e-003
3.999023437500000e-001	5.882809e-001	7.548803e-003
4.007568359375000e-001	5.839307e-001	7.886435e-003
4.012451171875000e-001	5.814354e-001	8.038102e-003
4.022216796875000e-001	5.764242e-001	8.260874e-003
4.041748046875000e-001	5.663428e-001	8.509081e-003
4.061279296875000e-001	5.561869e-001	8.580995e-003
4.080810546875000e-001	5.459472e-001	8.534297e-003
4.139404296875000e-001	5.147411e-001	8.183399e-003
4.334716796875000e-001	4.059271e-001	6.779261e-003
4.432373046875000e-001	3.491244e-001	6.032857e-003
4.490966796875000e-001	3.143981e-001	5.563571e-003
4.549560546875000e-001	2.792457e-001	5.071397e-003
4.588623046875000e-001	2.555976e-001	4.727031e-003
4.627685546875000e-001	2.317955e-001	4.366969e-003
4.666748046875000e-001	2.078539e-001	3.988988e-003
4.705810546875000e-001	1.837870e-001	3.591223e-003
4.725341796875000e-001	1.717111e-001	3.384507e-003
4.744873046875000e-001	1.596093e-001	3.172451e-003
4.764404296875000e-001	1.474836e-001	2.955045e-003
4.783935546875000e-001	1.353356e-001	2.732345e-003
4.803466796875000e-001	1.231672e-001	2.504478e-003
4.822998046875000e-001	1.109803e-001	2.271643e-003
4.842529296875000e-001	9.877669e-002	2.034108e-003
4.862060546875000e-001	8.655819e-002	1.792207e-003
4.881591796875000e-001	7.432666e-002	1.546338e-003
4.901123046875000e-001	6.208393e-002	1.296954e-003
4.920654296875000e-001	4.983185e-002	1.044557e-003
4.940185546875000e-001	3.757227e-002	7.896913e-004
4.959716796875000e-001	2.530703e-002	5.329348e-004
4.979248046875000e-001	1.303798e-002	2.748902e-004
4.998779296875000e-001	7.669616e-004	1.617740e-005
5.018310546875000e-001	-1.150417e-002	-2.425748e-004
5.037841796875000e-001	-2.377357e-002	-5.007371e-004
5.057373046875000e-001	-3.603939e-002	-7.576880e-004
5.076904296875000e-001	-4.829977e-002	-1.012822e-003
5.096435546875000e-001	-6.055289e-002	-1.265558e-003
5.115966796875000e-001	-7.279689e-002	-1.515347e-003
5.135498046875000e-001	-8.502992e-002	-1.761681e-003
5.155029296875000e-001	-9.725015e-002	-2.004101e-003
5.174560546875000e-001	-1.094557e-001	-2.242202e-003
5.194091796875000e-001	-1.216448e-001	-2.475641e-003
5.213623046875000e-001	-1.338156e-001	-2.704141e-003
5.233154296875000e-001	-1.459662e-001	-2.927495e-003
5.252685546875000e-001	-1.580949e-001	-3.145568e-003
5.272216796875000e-001	-1.701997e-001	-3.358293e-003
5.291748046875000e-001	-1.822789e-001	-3.565673e-003
5.330810546875000e-001	-2.063532e-001	-3.964724e-003
5.369873046875000e-001	-2.303031e-001	-4.343892e-003
5.408935546875000e-001	-2.541144e-001	-4.705011e-003
5.447998046875000e-001	-2.777725e-001	-5.050290e-003
5.506591796875000e-001	-3.129416e-001	-5.543567e-003
5.565185546875000e-001	-3.476866e-001	-6.013678e-003
5.662841796875000e-001	-4.045248e-001	-6.761023e-003
5.858154296875000e-001	-5.134254e-001	-8.163501e-003
5.897216796875000e-001	-5.343294e-001	-8.401314e-003
5.916748046875000e-001	-5.446614e-001	-8.476785e-003
5.936279296875000e-001	-5.549114e-001	-8.469090e-003
5.958251953125000e-001	-5.663635e-001	-8.326014e-003
5.972900390625000e-001	-5.739241e-001	-8.009711e-003
5.983886718750000e-001	-5.795639e-001	-7.640924e-003
5.992431640625000e-001	-5.839307e-001	-7.274360e-003
6.007080078125000e-001	-5.913782e-001	-6.528171e-003
6.026611328125000e-001	-6.012288e-001	-5.471694e-003
6.040039062500000e-001	-6.079494e-001	-4.813443e-003
6.052246093750000e-001	-6.140208e-001	-4.298910e-003
6.066894531250000e-001	-6.212585e-001	-3.788013e-003
6.074218750000000e-001	-6.248565e-001	-3.572692e-003
6.086425781250000e-001	-6.308285e-001	-3.256167e-003
6.091308593750000e-001	-6.332038e-001	-3.148854e-003
6.101074218750000e-001	-6.379319e-001	-2.959764e-003
6.120605468750000e-001	-6.473216e-001	-2.643738e-003
6.140136718750000e-001	-6.566258e-001	-2.389383e-003
6.159667968750000e-001	-6.658311e-001	-2.188876e-003
6.179199218750000e-001	-6.749362e-001	-2.027540e-003
6.198730468750000e-001	-6.839396e-001	-1.895255e-003
6.218261718750000e-001	-6.928401e-001	-1.784954e-003
6.237792968750000e-001	-7.016362e-001	-1.691606e-003
6.257324218750000e-001	-7.103266e-001	-1.611565e-003
6.276855468750000e-001	-7.189100e-001	-1.542140e-003
6.296386718750000e-001	-7.273852e-001	-1.481305e-003
6.315917968750000e-001	-7.357509e-001	-1.427516e-003
6.335449218750000e-001	-7.440057e-001	-1.379575e-003
6.354980468750000e-001	-7.521485e-001	-1.336538e-003
6.394042968750000e-001	-7.680931e-001	-1.262326e-003
6.433105468750000e-001	-7.835750e-001	-1.200444e-003
6.472167968750000e-001	-7.985849e-001	-1.147905e-003
6.530761718750000e-001	-8.201951e-001	-1.082228e-003
6.589355468750000e-001	-8.406937e-001	-1.028265e-003
6.647949218750000e-001	-8.600530e-001	-9.829586e-004
6.726074218750000e-001	-8.840480e-001	-9.325425e-004
6.823730468750000e-001	-9.110404e-001	-8.811941e-004
6.940917968750000e-001	-9.388971e-001	-8.315217e-004
7.077636718750000e-001	-9.649569e-001	-7.846720e-004
7.272949218750000e-001	-9.898040e-001	-7.306715e-004
7.487792968750000e-001	-9.999329e-001	-6.809871e-004
7.702636718750000e-001	-9.918684e-001	-6.356869e-004
7.917480468750000e-001	-9.657570e-001	-5.910571e-004
8.132324218750000e-001	-9.220740e-001	-5.447764e-004
8.347167968750000e-001	-8.616140e-001	-4.954478e-004
8.562011718750000e-001	-7.854773e-001	-4.423299e-004
8.776855468750000e-001	-6.950489e-001	-3.851617e-004
8.991699218750000e-001	-5.919744e-001	-3.240399e-004
9.206542968750000e-001	-4.781291e-001	-2.593298e-004
9.421386718750000e-001	-3.555843e-001	-1.915968e-004
9.636230468750000e-001	-2.265697e-001	-1.215529e-004
9.851074218750000e-001	-9.343282e-002	-5.001103e-005
9.987792968750000e-001	-7.669612e-003	-4.103376e-006
1.000000000000000e+000	0.000000e+000	-1.540740e-037
Step Information: X=2  (Run: 2/5)
0.000000000000000e+000	-2.449213e-016	-1.398026e-019
1.025390625000000e-002	1.284933e-001	7.343940e-005
2.099609375000000e-002	2.607843e-001	1.496664e-004
3.173828125000000e-002	3.883304e-001	2.244800e-004
4.248046875000000e-002	5.088110e-001	2.972892e-004
5.322265625000000e-002	6.200339e-001	3.676756e-004
6.396484375000000e-002	7.199754e-001	4.354758e-004
7.470703125000000e-002	8.068172e-001	5.008952e-004
8.544921875000000e-002	8.789791e-001	5.646810e-004
9.619140625000000e-002	9.351483e-001	6.284187e-004
1.069335937500000e-001	9.743027e-001	6.950941e-004
1.157226562500000e-001	9.931746e-001	7.555938e-004
1.225585937500000e-001	9.994918e-001	8.099267e-004
1.284179687500000e-001	9.990401e-001	8.650427e-004
1.333007812500000e-001	9.945271e-001	9.202913e-004
1.372070312500000e-001	9.882203e-001	9.734156e-004
1.411132812500000e-001	9.795329e-001	1.037846e-003
1.440429687500000e-001	9.714673e-001	1.096402e-003
1.469726562500000e-001	9.620852e-001	1.166981e-003
1.499023437500000e-001	9.513992e-001	1.253958e-003
1.518554687500000e-001	9.435579e-001	1.324183e-003
1.538085937500000e-001	9.351483e-001	1.407359e-003
1.557617187500000e-001	9.261754e-001	1.507355e-003
1.577148437500000e-001	9.166446e-001	1.629645e-003
1.586914062500000e-001	9.116717e-001	1.701510e-003
1.596679687500000e-001	9.065616e-001	1.782204e-003
1.606445312500000e-001	9.013149e-001	1.873358e-003
1.616210937500000e-001	8.959325e-001	1.977003e-003
1.625976562500000e-001	8.904152e-001	2.095690e-003
1.635742187500000e-001	8.847638e-001	2.232651e-003
1.645507812500000e-001	8.789791e-001	2.392018e-003
1.655273437500000e-001	8.730621e-001	2.579115e-003
1.665039062500000e-001	8.670136e-001	2.800843e-003
1.674804687500000e-001	8.608345e-001	3.066164e-003
1.685791015625000e-001	8.537593e-001	3.414047e-003
1.694335937500000e-001	8.481193e-001	3.756040e-003
1.702880859375000e-001	8.423816e-001	4.164773e-003
1.711425781250000e-001	8.365468e-001	4.654045e-003
1.718750000000000e-001	8.314694e-001	5.147257e-003
1.727294921875000e-001	8.254559e-001	5.819141e-003
1.737060546875000e-001	8.184662e-001	6.710022e-003
1.758422851562500e-001	8.027495e-001	8.848858e-003
1.766967773437500e-001	7.963001e-001	9.584375e-003
1.775512695312500e-001	7.897590e-001	1.015294e-002
1.782836914062500e-001	7.840661e-001	1.047280e-002
1.792602539062500e-001	7.763761e-001	1.073789e-002
1.802368164062500e-001	7.685840e-001	1.087251e-002
1.812133789062500e-001	7.606761e-001	1.090067e-002
1.831665039062500e-001	7.445179e-001	1.078975e-002
1.890258789062500e-001	6.933929e-001	1.009922e-002
1.978149414062500e-001	6.097521e-001	8.886224e-003
2.056274414062500e-001	5.291331e-001	7.714129e-003
2.134399414062500e-001	4.434181e-001	6.466613e-003
2.212524414062500e-001	3.534328e-001	5.155742e-003
2.290649414062500e-001	2.600438e-001	3.794261e-003
2.368774414062500e-001	1.641504e-001	2.395471e-003
2.437133789062500e-001	7.891490e-002	1.151709e-003
2.456665039062500e-001	5.442736e-002	7.943403e-004
2.505493164062500e-001	-6.902599e-003	-1.007411e-004
2.573852539062500e-001	-9.266919e-002	-1.352431e-003
2.651977539062500e-001	-1.898146e-001	-2.769896e-003
2.730102539062500e-001	-2.851321e-001	-4.160099e-003
2.808227539062500e-001	-3.777035e-001	-5.509414e-003
2.886352539062500e-001	-4.666374e-001	-6.804673e-003
2.964477539062500e-001	-5.510774e-001	-8.033302e-003
3.042602539062500e-001	-6.302102e-001	-9.183381e-003
3.130493164062500e-001	-7.119442e-001	-1.035954e-002
3.159790039062500e-001	-7.373071e-001	-1.067661e-002
3.179321289062500e-001	-7.536628e-001	-1.077342e-002
3.189086914062500e-001	-7.616709e-001	-1.072962e-002
3.198852539062500e-001	-7.695643e-001	-1.057123e-002
3.209838867187500e-001	-7.783343e-001	-1.024492e-002
3.218383789062500e-001	-7.850310e-001	-9.771105e-003
3.226928710937500e-001	-7.916372e-001	-9.122382e-003
3.238525390625000e-001	-8.004574e-001	-8.035114e-003
3.252563476562500e-001	-8.109053e-001	-6.643695e-003
3.261108398437500e-001	-8.171420e-001	-5.872972e-003
3.269653320312500e-001	-8.232844e-001	-5.198438e-003
3.278198242187500e-001	-8.293319e-001	-4.624261e-003
3.286743164062500e-001	-8.352838e-001	-4.141801e-003
3.295288085937500e-001	-8.411394e-001	-3.738220e-003
3.302612304687500e-001	-8.460664e-001	-3.453050e-003
3.312377929687500e-001	-8.525279e-001	-3.129602e-003
3.322143554687500e-001	-8.588769e-001	-2.854368e-003
3.331909179687500e-001	-8.650966e-001	-2.624628e-003
3.341674804687500e-001	-8.711860e-001	-2.431039e-003
3.351440429687500e-001	-8.771442e-001	-2.266385e-003
3.361206054687500e-001	-8.829703e-001	-2.125088e-003
3.370971679687500e-001	-8.886635e-001	-2.002819e-003
3.380737304687500e-001	-8.942228e-001	-1.896194e-003
3.390502929687500e-001	-8.996475e-001	-1.802542e-003
3.400268554687500e-001	-9.049366e-001	-1.719740e-003
3.410034179687500e-001	-9.100895e-001	-1.646085e-003
3.429565429687500e-001	-9.199833e-001	-1.520952e-003
3.449096679687500e-001	-9.293230e-001	-1.418839e-003
3.468627929687500e-001	-9.381030e-001	-1.334057e-003
3.488159179687500e-001	-9.463177e-001	-1.262596e-003
3.517456054687500e-001	-9.575697e-001	-1.174259e-003
3.546752929687500e-001	-9.675239e-001	-1.102730e-003
3.576049804687500e-001	-9.761670e-001	-1.043504e-003
3.615112304687500e-001	-9.856313e-001	-9.784787e-004
3.654174804687500e-001	-9.927212e-001	-9.249917e-004
3.703002929687500e-001	-9.982190e-001	-8.695061e-004
3.761596679687500e-001	-9.998562e-001	-8.143136e-004
3.829956054687500e-001	-9.949191e-001	-7.600722e-004
3.917846679687500e-001	-9.778014e-001	-6.998625e-004
4.025268554687500e-001	-9.407310e-001	-6.336881e-004
4.132690429687500e-001	-8.865442e-001	-5.705293e-004
4.240112304687500e-001	-8.162270e-001	-5.073463e-004
4.347534179687500e-001	-7.310588e-001	-4.425170e-004
4.454956054687500e-001	-6.325891e-001	-3.752670e-004
4.562377929687500e-001	-5.226097e-001	-3.053700e-004
4.669799804687500e-001	-4.031215e-001	-2.329737e-004
4.777221679687500e-001	-2.762986e-001	-1.584853e-004
4.884643554687500e-001	-1.444486e-001	-8.248990e-005
4.982299804687500e-001	-2.224005e-002	-1.268084e-005
4.992065429687500e-001	-9.970382e-003	-5.684736e-006
5.000000000000000e-001	0.000000e+000	-1.310787e-037
Step Information: X=3  (Run: 3/5)
0.000000000000000e+000	-2.449213e-016	-1.714451e-019
4.101562500000044e-003	1.284933e-001	9.011565e-005
8.398437500000106e-003	2.607843e-001	1.839977e-004
1.269531250000017e-002	3.883304e-001	2.768376e-004
1.699218750000023e-002	5.088110e-001	3.682062e-004
2.128906250000029e-002	6.200339e-001	4.578057e-004
2.558593750000035e-002	7.199754e-001	5.455206e-004
2.988281250000041e-002	8.068172e-001	6.314785e-004
3.417968750000047e-002	8.789791e-001	7.161252e-004
3.847656250000053e-002	9.351483e-001	8.003245e-004
4.277343750000059e-002	9.743027e-001	8.854993e-004
4.707031250000066e-002	9.957299e-001	9.738423e-004
5.136718750000063e-002	9.990401e-001	1.068645e-003
5.527343750000041e-002	9.862710e-001	1.164532e-003
5.878906250000021e-002	9.620852e-001	1.263305e-003
6.191406250000003e-002	9.307319e-001	1.365733e-003
6.464843749999988e-002	8.959325e-001	1.471167e-003
6.738281249999972e-002	8.545258e-001	1.596608e-003
6.972656249999959e-002	8.140057e-001	1.725017e-003
7.207031249999946e-002	7.690744e-001	1.878096e-003
7.441406249999932e-002	7.199754e-001	2.061603e-003
7.675781249999919e-002	6.669748e-001	2.280642e-003
7.910156249999906e-002	6.103598e-001	2.536056e-003
8.300781249999883e-002	5.088110e-001	2.999223e-003
8.457031249999875e-002	4.659590e-001	3.155931e-003
8.574218749999868e-002	4.330775e-001	3.239017e-003
8.691406249999861e-002	3.996091e-001	3.277583e-003
8.808593749999855e-002	3.655992e-001	3.259249e-003
8.925781249999848e-002	3.310938e-001	3.175195e-003
9.003906249999844e-002	3.078381e-001	3.080643e-003
9.082031249999839e-002	2.843968e-001	2.955504e-003
9.160156249999835e-002	2.607843e-001	2.801111e-003
9.277343749999828e-002	2.250754e-001	2.519442e-003
9.394531249999821e-002	1.890616e-001	2.185949e-003
9.511718749999815e-002	1.527914e-001	1.810722e-003
9.628906249999808e-002	1.163142e-001	1.403557e-003
9.746093749999801e-002	7.967944e-002	9.734830e-004
9.863281249999795e-002	4.293664e-002	5.284952e-004
9.980468749999788e-002	6.135654e-003	7.574200e-005
1.005859374999978e-001	-1.840604e-002	-2.271040e-004
1.017578124999978e-001	-5.519317e-002	-6.780186e-004
1.029296874999977e-001	-9.190550e-002	-1.118849e-003
1.041015624999976e-001	-1.284933e-001	-1.542208e-003
1.052734374999976e-001	-1.649069e-001	-1.939810e-003
1.064453124999975e-001	-2.010971e-001	-2.302328e-003
1.076171874999974e-001	-2.370147e-001	-2.619669e-003
1.087890624999974e-001	-2.726111e-001	-2.881959e-003
1.095703124999973e-001	-2.961397e-001	-3.021958e-003
1.103515624999973e-001	-3.194900e-001	-3.131922e-003
1.115234374999972e-001	-3.541502e-001	-3.238974e-003
1.126953124999972e-001	-3.883304e-001	-3.278476e-003
1.138671874999971e-001	-4.219844e-001	-3.257632e-003
1.150390624999970e-001	-4.550664e-001	-3.187884e-003
1.154296874999970e-001	-4.659590e-001	-3.156078e-003
1.173828124999969e-001	-5.193365e-001	-2.955084e-003
1.212890624999967e-001	-6.200339e-001	-2.491301e-003
1.236328124999965e-001	-6.760672e-001	-2.241602e-003
1.259765624999964e-001	-7.284369e-001	-2.028713e-003
1.283203124999963e-001	-7.768592e-001	-1.850665e-003
1.306640624999961e-001	-8.210716e-001	-1.702080e-003
1.330078124999960e-001	-8.608345e-001	-1.577253e-003
1.357421874999958e-001	-9.013149e-001	-1.455031e-003
1.388671874999957e-001	-9.394239e-001	-1.338556e-003
1.423828124999955e-001	-9.714673e-001	-1.228748e-003
1.462890624999952e-001	-9.931746e-001	-1.124756e-003
1.505859374999950e-001	-9.997929e-001	-1.024489e-003
1.548828124999948e-001	-9.882203e-001	-9.331179e-004
1.591796874999945e-001	-9.586674e-001	-8.465466e-004
1.634765624999943e-001	-9.116717e-001	-7.620341e-004
1.677734374999940e-001	-8.480884e-001	-6.777698e-004
1.720703124999938e-001	-7.690744e-001	-5.926059e-004
1.763671874999935e-001	-6.760672e-001	-5.058832e-004
1.806640624999933e-001	-5.707592e-001	-4.173111e-004
1.849609374999930e-001	-4.550664e-001	-3.268807e-004
1.892578124999928e-001	-3.310938e-001	-2.347971e-004
1.935546874999926e-001	-2.010971e-001	-1.414241e-004
1.978515624999923e-001	-6.744138e-002	-4.723444e-005
1.998046874999922e-001	-6.135731e-003	-4.295116e-006
2.000000000000000e-001	0.000000e+000	9.614646e-038
Step Information: X=4  (Run: 4/5)
0.000000000000000e+000	-2.449213e-016	-1.714449e-019
2.050781250000022e-003	1.284933e-001	9.003020e-005
4.199218750000053e-003	2.607843e-001	1.832662e-004
6.347656250000083e-003	3.883304e-001	2.742788e-004
8.496093750000114e-003	5.088110e-001	3.619475e-004
1.064453125000014e-002	6.200339e-001	4.451693e-004
1.279296875000018e-002	7.199754e-001	5.228613e-004
1.494140625000021e-002	8.068172e-001	5.939573e-004
1.708984375000024e-002	8.789791e-001	6.574033e-004
1.923828125000027e-002	9.351483e-001	7.121465e-004
2.138671875000030e-002	9.743027e-001	7.571233e-004
2.353515625000033e-002	9.957299e-001	7.912446e-004
2.568359375000032e-002	9.990401e-001	8.133852e-004
2.783203125000019e-002	9.841731e-001	8.223815e-004
2.998046875000007e-002	9.513992e-001	8.170460e-004
3.193359374999996e-002	9.065616e-001	7.987748e-004
3.388671874999985e-002	8.480884e-001	7.668858e-004
3.564453124999975e-002	7.845271e-001	7.259964e-004
3.740234374999965e-002	7.114054e-001	6.732441e-004
3.916015624999955e-002	6.296145e-001	6.085845e-004
4.072265624999946e-002	5.504372e-001	5.413449e-004
4.228515624999937e-002	4.659590e-001	4.654151e-004
4.384765624999928e-002	3.769932e-001	3.815836e-004
4.521484374999921e-002	2.961397e-001	3.026097e-004
4.658203124999913e-002	2.131023e-001	2.193600e-004
4.794921874999905e-002	1.284933e-001	1.329273e-004
4.931640624999897e-002	4.293664e-002	4.453042e-005
5.068359374999890e-002	-4.293664e-002	-4.453042e-005
5.205078124999882e-002	-1.284933e-001	-1.329273e-004
5.341796874999874e-002	-2.131023e-001	-2.193600e-004
