time	V(n001)	-I(V1)
Step Information: X=1  (Run: 1/5)
0.000000000000000e+000	-4.191274e-017	-3.498877e-020
1.855468750000000e-002	3.319338e-002	1.664501e-005
3.613281250000000e-002	6.402054e-002	3.236308e-005
5.371093750000000e-002	9.365561e-002	4.798624e-005
7.128906250000000e-002	1.215245e-001	6.347603e-005
8.886718750000000e-002	1.470625e-001	7.880267e-005
1.064453125000000e-001	1.697218e-001	9.394715e-005
1.240234375000000e-001	1.889825e-001	1.089025e-004
1.396484375000000e-001	2.028648e-001	1.220414e-004
1.552734375000000e-001	2.133962e-001	1.350458e-004
1.708984375000000e-001	2.203465e-001	1.479313e-004
1.865234375000000e-001	2.235640e-001	1.607149e-004
2.021484375000000e-001	2.229981e-001	1.734095e-004
2.177734375000000e-001	2.187209e-001	1.860171e-004
2.353515625000000e-001	2.097440e-001	2.000725e-004
2.529296875000000e-001	1.968752e-001	2.139175e-004
2.744140625000000e-001	1.769892e-001	2.303236e-004
2.958984375000000e-001	1.541859e-001	2.456826e-004
3.173828125000000e-001	1.303747e-001	2.591641e-004
3.388671875000000e-001	1.073113e-001	2.694869e-004
3.564453125000000e-001	8.992846e-002	2.742945e-004
3.720703125000000e-001	7.597228e-002	2.746325e-004
3.857421875000000e-001	6.499224e-002	2.709055e-004
3.994140625000000e-001	5.511092e-002	2.624489e-004
4.111328125000000e-001	4.741728e-002	2.506849e-004
4.208984375000000e-001	4.146590e-002	2.372373e-004
4.306640625000000e-001	3.585183e-002	2.201614e-004
4.404296875000000e-001	3.049723e-002	1.992564e-004
4.482421875000000e-001	2.635050e-002	1.797272e-004
4.560546875000000e-001	2.228867e-002	1.577527e-004
4.638671875000000e-001	1.828312e-002	1.334686e-004
4.716796875000000e-001	1.431132e-002	1.071039e-004
4.794921875000000e-001	1.035691e-002	7.898132e-005
4.873046875000000e-001	6.409774e-003	4.951018e-005
4.951171875000000e-001	2.465179e-003	1.917033e-005
5.048828125000000e-001	-2.465231e-003	-1.917034e-005
5.126953125000000e-001	-6.409838e-003	-4.951018e-005
5.205078125000000e-001	-1.035650e-002	-7.898132e-005
5.283203125000000e-001	-1.431126e-002	-1.071038e-004
5.361328125000000e-001	-1.828305e-002	-1.334686e-004
5.439453125000000e-001	-2.228857e-002	-1.577527e-004
5.517578125000000e-001	-2.635039e-002	-1.797271e-004
5.615234375000000e-001	-3.155090e-002	-2.037491e-004
5.712890625000000e-001	-3.695125e-002	-2.238782e-004
5.791015625000000e-001	-4.146570e-002	-2.372373e-004
5.888671875000000e-001	-4.741704e-002	-2.506849e-004
6.005859375000000e-001	-5.511064e-002	-2.624489e-004
6.142578125000000e-001	-6.499190e-002	-2.709056e-004
6.298828125000000e-001	-7.763432e-002	-2.748346e-004
6.455078125000000e-001	-9.177580e-002	-2.739664e-004
6.650390625000000e-001	-1.113818e-001	-2.679206e-004
6.865234375000000e-001	-1.346946e-001	-2.569034e-004
7.080078125000000e-001	-1.584619e-001	-2.430003e-004
7.294921875000000e-001	-1.808760e-001	-2.274002e-004
7.490234375000000e-001	-1.984746e-001	-2.123936e-004
7.666015625000000e-001	-2.109446e-001	-1.985194e-004
7.841796875000000e-001	-2.194518e-001	-1.844464e-004
7.998046875000000e-001	-2.232738e-001	-1.718274e-004
8.154296875000000e-001	-2.233681e-001	-1.591221e-004
8.310546875000000e-001	-2.196790e-001	-1.463266e-004
8.466796875000000e-001	-2.122710e-001	-1.334272e-004
8.623046875000000e-001	-2.013068e-001	-1.204067e-004
8.779296875000000e-001	-1.870251e-001	-1.072501e-004
8.955078125000000e-001	-1.673624e-001	-9.227379e-005
9.130859375000000e-001	-1.443570e-001	-7.710850e-005
9.306640625000000e-001	-1.185326e-001	-6.176256e-005
9.482421875000000e-001	-9.043942e-002	-4.625630e-005
9.658203125000000e-001	-6.064350e-002	-3.062056e-005
9.833984375000000e-001	-2.971962e-002	-1.489460e-005
9.990234375000000e-001	-1.753031e-003	-8.765543e-007
1.000000000000000e+000	3.748527e-019	6.878327e-039
Step Information: X=2  (Run: 2/5)
0.000000000000000e+000	-6.646937e-017	-3.498875e-020
1.025390625000000e-002	3.668605e-002	1.837545e-005
2.001953125000000e-002	7.092648e-002	3.570092e-005
2.978515625000000e-002	1.038272e-001	5.268832e-005
3.955078125000000e-002	1.347658e-001	6.917391e-005
4.931640625000000e-002	1.631567e-001	8.499486e-005
5.908203125000000e-002	1.884650e-001	9.998892e-005
6.884765625000000e-002	2.102201e-001	1.139936e-004
7.861328125000000e-002	2.280294e-001	1.268447e-004
8.837890625000000e-002	2.415930e-001	1.383744e-004
9.814453125000000e-002	2.507157e-001	1.484097e-004
1.079101562500000e-001	2.553177e-001	1.567698e-004
1.176757812500000e-001	2.554409e-001	1.632650e-004
1.284179687500000e-001	2.506028e-001	1.680188e-004
1.391601562500000e-001	2.409258e-001	1.700031e-004
1.499023437500000e-001	2.269346e-001	1.689444e-004
1.596679687500000e-001	2.110022e-001	1.651246e-004
1.694335937500000e-001	1.925450e-001	1.584123e-004
1.791992187500000e-001	1.720884e-001	1.486904e-004
1.879882812500000e-001	1.523812e-001	1.373276e-004
1.967773437500000e-001	1.317853e-001	1.235201e-004
2.055664062500000e-001	1.105781e-001	1.073750e-004
2.133789062500000e-001	9.139434e-002	9.121440e-005
2.211914062500000e-001	7.202041e-002	7.355105e-005
2.290039062500000e-001	5.253957e-002	5.463326e-005
2.368164062500000e-001	3.300562e-002	3.475821e-005
2.446289062500000e-001	1.344866e-002	1.426258e-005
2.504882812500000e-001	-1.222710e-003	-1.298436e-006
2.583007812500000e-001	-2.078341e-002	-2.199851e-005
2.661132812500000e-001	-4.033470e-002	-4.230289e-005
2.739257812500000e-001	-5.985342e-002	-6.185655e-005
2.817382812500000e-001	-7.930193e-002	-8.033629e-005
2.885742187500000e-001	-9.621207e-002	-9.540395e-005
2.963867187500000e-001	-1.153314e-001	-1.111564e-004
3.051757812500000e-001	-1.364239e-001	-1.267955e-004
3.139648437500000e-001	-1.568481e-001	-1.400661e-004
3.227539062500000e-001	-1.763151e-001	-1.508789e-004
3.325195312500000e-001	-1.964130e-001	-1.599926e-004
3.422851562500000e-001	-2.144076e-001	-1.661152e-004
3.530273437500000e-001	-2.311436e-001	-1.695501e-004
3.637695312500000e-001	-2.440172e-001	-1.697523e-004
3.745117187500000e-001	-2.524210e-001	-1.669854e-004
3.852539062500000e-001	-2.558668e-001	-1.615239e-004
3.950195312500000e-001	-2.544117e-001	-1.544488e-004
4.047851562500000e-001	-2.484522e-001	-1.455667e-004
4.145507812500000e-001	-2.379835e-001	-1.350644e-004
4.243164062500000e-001	-2.231207e-001	-1.231203e-004
4.340820312500000e-001	-2.040917e-001	-1.099058e-004
4.438476562500000e-001	-1.812256e-001	-9.558718e-005
4.536132812500000e-001	-1.549398e-001	-8.032801e-005
4.633789062500000e-001	-1.257259e-001	-6.429062e-005
4.731445312500000e-001	-9.413531e-002	-4.763736e-005
4.829101562500000e-001	-6.076594e-002	-3.053130e-005
4.926757812500000e-001	-2.624899e-002	-1.313647e-005
4.995117187500000e-001	-1.753052e-003	-8.765433e-007
5.000000000000000e-001	4.685683e-020	0.000000e+000
Step Information: X=3  (Run: 3/5)
0.000000000000000e+000	-6.995705e-017	-3.498875e-020
4.101562500000044e-003	3.670185e-002	1.836388e-005
8.398437500000106e-003	7.442140e-002	3.731961e-005
1.269531250000017e-002	1.106519e-001	5.569494e-005
1.699218750000023e-002	1.446737e-001	7.319939e-005
2.128906250000029e-002	1.758177e-001	8.955043e-005
2.558593750000035e-002	2.034809e-001	1.044763e-004
2.988281250000041e-002	2.271399e-001	1.177190e-004
3.417968750000047e-002	2.463630e-001	1.290377e-004
3.847656250000053e-002	2.608195e-001	1.382118e-004
4.277343750000059e-002	2.702860e-001	1.450458e-004
4.707031250000066e-002	2.746489e-001	1.493729e-004
5.136718750000063e-002	2.739044e-001	1.510603e-004
5.566406250000039e-002	2.681538e-001	1.500151e-004
5.996093750000014e-002	2.575958e-001	1.461892e-004
6.425781249999990e-002	2.425156e-001	1.395861e-004
6.855468749999966e-002	2.232719e-001	1.302654e-004
7.246093749999943e-002	2.025154e-001	1.195342e-004
7.636718749999921e-002	1.790094e-001	1.067923e-004
8.027343749999899e-002	1.531225e-001	9.221993e-005
8.417968749999877e-002	1.252378e-001	7.604017e-005
8.808593749999855e-002	9.574705e-002	5.851587e-005
9.199218749999832e-002	6.504586e-002	3.994481e-005
9.589843749999810e-002	3.353102e-002	2.065309e-005
9.980468749999788e-002	1.600336e-003	9.867704e-007
1.029296874999977e-001	-2.397751e-002	-1.477641e-005
1.068359374999975e-001	-5.565884e-002	-3.421753e-005
1.107421874999973e-001	-8.664572e-002	-5.304010e-005
1.146484374999970e-001	-1.165413e-001	-7.091113e-005
1.154296874999970e-001	-1.223545e-001	-7.434360e-005
1.193359374999968e-001	-1.504175e-001	-9.067026e-005
1.232421874999966e-001	-1.765216e-001	-1.054141e-004
1.271484374999963e-001	-2.002826e-001	-1.183479e-004
1.310546874999961e-001	-2.213300e-001	-1.292870e-004
1.353515624999959e-001	-2.409323e-001	-1.388497e-004
1.396484374999956e-001	-2.564069e-001	-1.457032e-004
1.439453124999954e-001	-2.673890e-001	-1.497825e-004
1.482421874999951e-001	-2.735862e-001	-1.510793e-004
1.525390624999949e-001	-2.747915e-001	-1.496371e-004
1.568359374999946e-001	-2.708943e-001	-1.455450e-004
1.611328124999944e-001	-2.618888e-001	-1.389325e-004
1.654296874999942e-001	-2.478783e-001	-1.299634e-004
1.697265624999939e-001	-2.290764e-001	-1.188309e-004
1.740234374999937e-001	-2.058043e-001	-1.057535e-004
1.783203124999934e-001	-1.784849e-001	-9.097020e-005
1.826171874999932e-001	-1.476335e-001	-7.473768e-005
1.869140624999929e-001	-1.138465e-001	-5.732655e-005
1.912109374999927e-001	-7.778773e-002	-3.901848e-005
1.955078124999924e-001	-4.017279e-002	-2.010336e-005
1.998046874999922e-001	-1.753060e-003	-8.765371e-007
2.000000000000000e-001	2.998884e-021	0.000000e+000
Step Information: X=4  (Run: 4/5)
0.000000000000000e+000	-6.997495e-017	-3.498875e-020
2.050781250000022e-003	3.670711e-002	1.836003e-005
4.199218750000053e-003	7.446570e-002	3.728719e-005
6.347656250000083e-003	1.108025e-001	5.558489e-005
8.496093750000114e-003	1.450272e-001	7.294140e-005
1.064453125000014e-002	1.764941e-001	8.905763e-005
1.279296875000018e-002	2.046152e-001	1.036514e-004
1.494140625000021e-002	2.288722e-001	1.164618e-004
1.708984375000024e-002	2.488267e-001	1.272533e-004
1.923828125000027e-002	2.641281e-001	1.358202e-004
2.138671875000030e-002	2.745196e-001	1.419907e-004
2.353515625000033e-002	2.798419e-001	1.456310e-004
2.568359375000032e-002	2.800339e-001	1.466488e-004
2.783203125000019e-002	2.751316e-001	1.449969e-004
2.998046875000007e-002	2.652650e-001	1.406764e-004
3.212890624999995e-002	2.506521e-001	1.337381e-004
3.427734374999983e-002	2.315921e-001	1.242843e-004
3.642578124999971e-002	2.084575e-001	1.124689e-004
3.857421874999958e-002	1.816843e-001	9.849604e-005
4.072265624999946e-002	1.517634e-001	8.261747e-005
4.287109374999934e-002	1.192302e-001	6.512851e-005
4.501953124999922e-002	8.465606e-002	4.636228e-005
4.716796874999910e-002	4.863892e-002	2.668260e-005
4.912109374999898e-002	1.516216e-002	8.323932e-006
5.107421874999887e-002	-1.852720e-002	-1.017092e-005
5.322265624999875e-002	-5.526722e-002	-3.031149e-005
5.537109374999863e-002	-9.106742e-002	-4.985328e-005
5.751953124999851e-002	-1.253143e-001	-6.841354e-005
5.771484374999850e-002	-1.283299e-001	-7.003953e-005
5.986328124999837e-002	-1.602060e-001	-8.712086e-005
6.201171874999825e-002	-1.893198e-001	-1.025072e-004
6.416015624999813e-002	-2.151472e-001	-1.159147e-004
6.630859374999801e-002	-2.372113e-001	-1.271042e-004
6.845703124999789e-002	-2.550924e-001	-1.358850e-004
7.060546874999776e-002	-2.684373e-001	-1.421174e-004
7.275390624999764e-002	-2.769681e-001	-1.457130e-004
7.490234374999752e-002	-2.804900e-001	-1.466348e-004
7.705078124999740e-002	-2.788984e-001	-1.448952e-004
7.919921874999727e-002	-2.721834e-001	-1.405539e-004
8.134765624999715e-002	-2.604328e-001	-1.337149e-004
8.349609374999703e-002	-2.438330e-001	-1.245227e-004
8.564453124999691e-002	-2.226665e-001	-1.131589e-004
8.779296874999679e-002	-1.973086e-001	-9.983761e-005
8.994140624999666e-002	-1.682205e-001	-8.480177e-005
9.208984374999654e-002	-1.359404e-001	-6.831850e-005
9.423828124999642e-002	-1.010735e-001	-5.067503e-005
9.638671874999630e-002	-6.427903e-002	-3.217431e-005
9.853515624999618e-002	-2.625677e-002	-1.313078e-005
9.990234374999610e-002	-1.753063e-003	-8.765350e-007
1.000000000000000e-001	-5.614701e-010	-2.117804e-025
Step Information: X=5  (Run: 5/5)
0.000000000000000e+000	-7.354763e-010	-3.498900e-020
1.025390625000011e-003	3.670974e-002	1.835810e-005
2.099609375000026e-003	7.448778e-002	3.727103e-005
3.173828125000042e-003	1.108772e-001	5.553022e-005
4.248046875000057e-003	1.452016e-001	7.281386e-005
5.322265625000072e-003	1.768255e-001	8.881554e-005
6.396484375000087e-003	2.051664e-001	1.032492e-004
7.470703125000103e-003	2.297062e-001	1.158540e-004
8.544921875000118e-003	2.500006e-001	1.263989e-004
9.619140625000133e-003	2.656872e-001	1.346868e-004
1.069335937500015e-002	2.764920e-001	1.405588e-004
1.176757812500016e-002	2.822332e-001	1.438970e-004
1.284179687500016e-002	2.828236e-001	1.446283e-004
1.391601562500010e-002	2.782713e-001	1.427255e-004
1.499023437500004e-002	2.686778e-001	1.382097e-004
1.606445312499998e-002	2.542353e-001	1.311504e-004
1.713867187499991e-002	2.352211e-001	1.216656e-004
1.821289062499985e-002	2.119920e-001	1.099199e-004
1.928710937499979e-002	1.849770e-001	9.612276e-005
2.036132812499973e-002	1.546682e-001	8.052458e-005
2.143554687499967e-002	1.216126e-001	6.341255e-005
2.250976562499961e-002	8.640188e-002	4.510509e-005
2.358398437499955e-002	4.966255e-002	2.594556e-005
2.465820312499949e-002	1.204553e-002	6.295226e-006
2.553710937499944e-002	-1.892040e-002	-9.887847e-006
2.661132812499938e-002	-5.642702e-002	-2.947639e-005
2.768554687499931e-002	-9.293628e-002	-4.850744e-005
2.875976562499925e-002	-1.278009e-001	-6.662244e-005
2.885742187499925e-002	-1.308671e-001	-6.821193e-005
2.993164062499919e-002	-1.632305e-001	-8.494146e-005
3.100585937499913e-002	-1.926931e-001	-1.000755e-004
3.208007812499907e-002	-2.187220e-001	-1.133364e-004
3.315429687499900e-002	-2.408412e-001	-1.244844e-004
3.422851562499894e-002	-2.586407e-001	-1.333221e-004
3.530273437499888e-002	-2.717848e-001	-1.396973e-004
3.637695312499882e-002	-2.800187e-001	-1.435053e-004
3.745117187499876e-002	-2.831746e-001	-1.446898e-004
3.852539062499870e-002	-2.811763e-001	-1.432429e-004
3.959960937499864e-002	-2.740415e-001	-1.392044e-004
4.067382812499858e-002	-2.618833e-001	-1.326601e-004
4.174804687499852e-002	-2.449090e-001	-1.237392e-004
4.282226562499845e-002	-2.234173e-001	-1.126115e-004
4.389648437499839e-002	-1.977935e-001	-9.948366e-005
4.497070312499833e-002	-1.685030e-001	-8.459533e-005
4.604492187499827e-002	-1.360824e-001	-6.821471e-005
4.711914062499821e-002	-1.011298e-001	-5.063388e-005
4.819335937499815e-002	-6.429316e-002	-3.216397e-005
4.926757812499809e-002	-2.625774e-002	-1.313007e-005
4.995117187499805e-002	-1.753065e-003	-8.765340e-007
5.000000000000000e-002	-2.807349e-010	-2.646978e-026
