time	V(n001)	-I(V1)
Step Information: X=1  (Run: 1/5)
0.000000000000000e+000	0.000000e+000	0.000000e+000
1.081420097034425e-002	6.789471e-002	3.406455e-005
2.253295097034425e-002	1.411049e-001	7.162270e-005
3.327513847034425e-002	2.075521e-001	1.073211e-004
4.304076347034425e-002	2.671463e-001	1.415395e-004
5.280638847034425e-002	3.257351e-001	1.783324e-004
6.159545097034425e-002	3.774229e-001	2.146873e-004
6.940795097034425e-002	4.224065e-001	2.507222e-004
7.624388847034425e-002	4.609360e-001	2.862928e-004
8.307982597034425e-002	4.986152e-001	3.271315e-004
8.893920097034425e-002	5.301823e-001	3.679497e-004
9.382201347034425e-002	5.559412e-001	4.075888e-004
9.870482597034425e-002	5.811768e-001	4.541744e-004
1.026110759703443e-001	6.009725e-001	4.981330e-004
1.065173259703443e-001	6.204063e-001	5.500661e-004
1.094470134703443e-001	6.347370e-001	5.958655e-004
1.123767009703443e-001	6.488526e-001	6.493139e-004
1.153063884703443e-001	6.627485e-001	7.126791e-004
1.182360759703443e-001	6.764197e-001	7.891873e-004
1.201892009703443e-001	6.854067e-001	8.497463e-004
1.221423259703443e-001	6.942906e-001	9.201597e-004
1.240954509703443e-001	7.030700e-001	1.003064e-003
1.260485759703443e-001	7.117434e-001	1.102085e-003
1.270251384703443e-001	7.160400e-001	1.159159e-003
1.280017009703443e-001	7.203096e-001	1.222335e-003
1.289782634703443e-001	7.245522e-001	1.292613e-003
1.299548259703443e-001	7.287675e-001	1.371217e-003
1.309313884703443e-001	7.329552e-001	1.459652e-003
1.319079509703443e-001	7.371155e-001	1.559786e-003
1.328845134703443e-001	7.412480e-001	1.673959e-003
1.338610759703443e-001	7.453525e-001	1.805126e-003
1.348376384703443e-001	7.494290e-001	1.957057e-003
1.358142009703443e-001	7.534773e-001	2.134601e-003
1.367907634703443e-001	7.574972e-001	2.344039e-003
1.377673259703443e-001	7.614886e-001	2.593547e-003
1.388659587828443e-001	7.659516e-001	2.919645e-003
1.397204509703443e-001	7.693923e-001	3.238990e-003
1.405749431578443e-001	7.728106e-001	3.620181e-003
1.414294353453443e-001	7.762069e-001	4.077015e-003
1.422839275328443e-001	7.795806e-001	4.624424e-003
1.430163494078443e-001	7.824547e-001	5.175331e-003
1.438708415953443e-001	7.857867e-001	5.921421e-003
1.448474040953443e-001	7.895668e-001	6.897188e-003
1.468005290953443e-001	7.970380e-001	8.970439e-003
1.477160564390943e-001	8.004990e-001	9.800353e-003
1.486926189390943e-001	8.041611e-001	1.048106e-002
1.497912517515943e-001	8.082444e-001	1.099621e-002
1.512560955015943e-001	8.136231e-001	1.138142e-002
1.532092205015943e-001	8.206962e-001	1.165635e-002
1.590685955015943e-001	8.411698e-001	1.201546e-002
1.805529705015943e-001	9.062924e-001	1.294703e-002
2.030139080015943e-001	9.567285e-001	1.366755e-002
2.254748455015943e-001	9.881414e-001	1.411631e-002
2.479357830015943e-001	9.999065e-001	1.428438e-002
2.703967205015943e-001	9.917899e-001	1.416843e-002
2.928576580015943e-001	9.639529e-001	1.377076e-002
3.153185955015943e-001	9.169492e-001	1.309927e-002
3.377795330015943e-001	8.517131e-001	1.216733e-002
3.602404705015943e-001	7.695420e-001	1.099346e-002
3.827014080015943e-001	6.720697e-001	9.600995e-003
4.051623455015943e-001	5.612341e-001	8.017630e-003
4.276232830015943e-001	4.392393e-001	6.274847e-003
4.500842205015943e-001	3.085108e-001	4.407297e-003
4.715685955015943e-001	1.776895e-001	2.538421e-003
4.930529705015943e-001	4.363520e-002	6.233600e-004
5.008654705015943e-001	-5.437834e-003	-7.768334e-005
5.184435955015943e-001	-1.156242e-001	-1.651775e-003
5.399279705015943e-001	-2.482492e-001	-3.546417e-003
5.623889080015943e-001	-3.820349e-001	-5.457641e-003
5.838732830015943e-001	-5.029305e-001	-7.183956e-003
5.926623455015943e-001	-5.498699e-001	-7.819491e-003
5.955920330015943e-001	-5.651508e-001	-7.938188e-003
5.975451580015943e-001	-5.752320e-001	-7.893963e-003
5.985217205015943e-001	-5.802401e-001	-7.797000e-003
5.994982830015943e-001	-5.852265e-001	-7.626457e-003
6.005969158140943e-001	-5.908152e-001	-7.350976e-003
6.016955486265943e-001	-5.963699e-001	-6.924486e-003
6.025500408140943e-001	-6.006709e-001	-6.514304e-003
6.042590251890943e-001	-6.092210e-001	-5.568605e-003
6.059680095640943e-001	-6.177008e-001	-4.623559e-003
6.068225017515943e-001	-6.219141e-001	-4.198180e-003
6.076769939390943e-001	-6.261095e-001	-3.815100e-003
6.085314861265943e-001	-6.302867e-001	-3.475394e-003
6.090197673765943e-001	-6.326634e-001	-3.304809e-003
6.099963298765943e-001	-6.374002e-001	-2.997006e-003
6.109728923765943e-001	-6.421161e-001	-2.727262e-003
6.119494548765943e-001	-6.468077e-001	-2.495652e-003
6.129260173765943e-001	-6.514750e-001	-2.296259e-003
6.139025798765943e-001	-6.561178e-001	-2.123893e-003
6.148791423765943e-001	-6.607358e-001	-1.974153e-003
6.158557048765943e-001	-6.653290e-001	-1.843376e-003
6.168322673765943e-001	-6.698972e-001	-1.728540e-003
6.178088298765943e-001	-6.744401e-001	-1.627164e-003
6.187853923765943e-001	-6.789576e-001	-1.537205e-003
6.197619548765943e-001	-6.834496e-001	-1.456984e-003
6.207385173765943e-001	-6.879158e-001	-1.385109e-003
6.226916423765943e-001	-6.967704e-001	-1.261981e-003
6.246447673765943e-001	-7.055202e-001	-1.160682e-003
6.265978923765943e-001	-7.141635e-001	-1.076153e-003
6.285510173765943e-001	-7.226995e-001	-1.004734e-003
6.314807048765943e-001	-7.352988e-001	-9.164768e-004
6.344103923765943e-001	-7.476490e-001	-8.453402e-004
6.373400798765943e-001	-7.597458e-001	-7.869789e-004
6.412463298765943e-001	-7.754739e-001	-7.239566e-004
6.451525798765943e-001	-7.907348e-001	-6.734952e-004
6.500353923765943e-001	-8.091401e-001	-6.232445e-004
6.549182048765943e-001	-8.267838e-001	-5.834160e-004
6.607775798765943e-001	-8.469278e-001	-5.455634e-004
6.676135173765943e-001	-8.689765e-001	-5.112626e-004
6.754260173765943e-001	-8.922101e-001	-4.812354e-004
6.851916423765943e-001	-9.182236e-001	-4.531547e-004
6.969103923765943e-001	-9.448700e-001	-4.286557e-004
7.115588298765943e-001	-9.709633e-001	-4.068439e-004
7.320666423765943e-001	-9.936491e-001	-3.853925e-004
7.545275798765943e-001	-9.995860e-001	-3.672049e-004
7.769885173765943e-001	-9.856475e-001	-3.499277e-004
7.906603923765943e-001	-9.675338e-001	-3.386390e-004
8.131213298765943e-001	-9.223698e-001	-3.176325e-004
8.355822673765943e-001	-8.588659e-001	-2.927421e-004
8.580432048765943e-001	-7.782845e-001	-2.635485e-004
8.805041423765943e-001	-6.822281e-001	-2.300564e-004
9.029650798765943e-001	-5.726066e-001	-1.925714e-004
9.254260173765943e-001	-4.515996e-001	-1.516143e-004
9.478869548765943e-001	-3.216132e-001	-1.078582e-004
9.703478923765943e-001	-1.852320e-001	-6.208233e-005
9.918322673765943e-001	-5.129637e-002	-1.718812e-005
9.996447673765943e-001	-2.231978e-003	-7.478642e-007
1.000000000000000e+000	-2.449213e-016	-8.206522e-020
Step Information: X=2  (Run: 2/5)
0.000000000000000e+000	0.000000e+000	0.000000e+000
1.279999963799128e-007	1.608495e-006	8.042477e-010
8.825069235172123e-003	1.106709e-001	5.558832e-005
1.859069423517212e-002	2.314961e-001	1.181527e-004
2.737975673517212e-002	3.373127e-001	1.765849e-004
3.568053798517212e-002	4.334975e-001	2.350778e-004
4.300475673517212e-002	5.144860e-001	2.910200e-004
4.935241298517212e-002	5.811768e-001	3.445664e-004
5.521178798517212e-002	6.394663e-001	4.002089e-004
6.009460048517212e-002	6.854067e-001	4.531546e-004
6.448913173517212e-002	7.245522e-001	5.080291e-004
6.839538173517212e-002	7.574972e-001	5.647474e-004
7.181335048517212e-002	7.848297e-001	6.227313e-004
7.523131923517212e-002	8.107145e-001	6.913252e-004
7.816100673517212e-002	8.317131e-001	7.615587e-004
8.060241298517212e-002	8.483520e-001	8.309198e-004
8.304381923517212e-002	8.641925e-001	9.133918e-004
8.499694423517212e-002	8.762800e-001	9.917492e-004
8.695006923517212e-002	8.878396e-001	1.084557e-003
8.890319423517212e-002	8.988644e-001	1.196375e-003
9.036803798517212e-002	9.067780e-001	1.296580e-003
9.183288173517212e-002	9.143844e-001	1.415045e-003
9.329772548517212e-002	9.216810e-001	1.557179e-003
9.476256923517212e-002	9.286653e-001	1.730631e-003
9.573913173517212e-002	9.331468e-001	1.868954e-003
9.671569423517212e-002	9.374877e-001	2.030551e-003
9.769225673517212e-002	9.416875e-001	2.221417e-003
9.866881923517212e-002	9.457455e-001	2.449595e-003
9.915710048517212e-002	9.477211e-001	2.580953e-003
9.964538173517212e-002	9.496611e-001	2.726027e-003
1.001336629851721e-001	9.515653e-001	2.886835e-003
1.006219442351721e-001	9.534336e-001	3.065753e-003
1.011102254851721e-001	9.552661e-001	3.265575e-003
1.015985067351721e-001	9.570626e-001	3.489583e-003
1.020867879851721e-001	9.588231e-001	3.741619e-003
1.025750692351721e-001	9.605474e-001	4.026140e-003
1.032464559539221e-001	9.628673e-001	4.469920e-003
1.036737020476721e-001	9.643028e-001	4.801327e-003
1.041009481414221e-001	9.657106e-001	5.171752e-003
1.045281942351721e-001	9.670905e-001	5.585386e-003
1.049554403289221e-001	9.684426e-001	6.045987e-003
1.053826864226721e-001	9.697668e-001	6.556232e-003
1.060540731414221e-001	9.717922e-001	7.457376e-003
1.069696004851721e-001	9.744408e-001	8.857412e-003
1.082513387664221e-001	9.779326e-001	1.088616e-002
1.090142782195471e-001	9.798898e-001	1.191629e-002
1.096856649382971e-001	9.815388e-001	1.262952e-002
1.098687704070471e-001	9.819757e-001	1.278836e-002
1.106011922820471e-001	9.836656e-001	1.328189e-002
1.115777547820471e-001	9.857998e-001	1.370409e-002
1.130425985320471e-001	9.887227e-001	1.400180e-002
1.159722860320471e-001	9.935626e-001	1.418180e-002
1.262261922820471e-001	9.998719e-001	1.428388e-002
1.374566610320471e-001	9.877641e-001	1.411092e-002
1.486871297820471e-001	9.560160e-001	1.365737e-002
1.599175985320471e-001	9.052590e-001	1.293227e-002
1.711480672820471e-001	8.365021e-001	1.195003e-002
1.823785360320471e-001	7.511125e-001	1.073018e-002
1.936090047820471e-001	6.507882e-001	9.296974e-003
2.048394735320471e-001	5.375239e-001	7.678912e-003
2.160699422820471e-001	4.135716e-001	5.908166e-003
2.273004110320471e-001	2.813961e-001	4.019944e-003
2.380425985320471e-001	1.496949e-001	2.138499e-003
2.482965047820471e-001	2.140492e-002	3.057845e-004
2.541558797820471e-001	-5.220010e-002	-7.457157e-004
2.561090047820471e-001	-7.669192e-002	-1.095599e-003
2.668511922820471e-001	-2.101773e-001	-3.002533e-003
2.775933797820471e-001	-3.398386e-001	-4.854837e-003
2.888238485320471e-001	-4.687454e-001	-6.696362e-003
3.000543172820471e-001	-5.883318e-001	-8.404736e-003
3.107965047820471e-001	-6.918026e-001	-9.881889e-003
3.171441610320471e-001	-7.471394e-001	-1.063056e-002
3.190972860320471e-001	-7.632258e-001	-1.076207e-002
3.205621297820471e-001	-7.749894e-001	-1.072944e-002
3.215386922820471e-001	-7.826862e-001	-1.057658e-002
3.225152547820471e-001	-7.902651e-001	-1.025331e-002
3.234918172820471e-001	-7.977315e-001	-9.719955e-003
3.243463094695471e-001	-8.041609e-001	-9.047004e-003
3.253839071257971e-001	-8.118423e-001	-8.042070e-003
3.269708211882971e-001	-8.233243e-001	-6.418094e-003
3.278253133757971e-001	-8.293712e-001	-5.633061e-003
3.286187704070471e-001	-8.349004e-001	-4.996615e-003
3.290460165007971e-001	-8.378399e-001	-4.695302e-003
3.295342977507971e-001	-8.411698e-001	-4.381624e-003
3.300225790007971e-001	-8.444719e-001	-4.094481e-003
3.305108602507971e-001	-8.477423e-001	-3.835439e-003
3.309991415007971e-001	-8.509808e-001	-3.601808e-003
3.314874227507971e-001	-8.541872e-001	-3.390954e-003
3.319757040007971e-001	-8.573614e-001	-3.200406e-003
3.324639852507971e-001	-8.605034e-001	-3.027898e-003
3.334405477507971e-001	-8.666901e-001	-2.729078e-003
3.344171102507971e-001	-8.727462e-001	-2.480812e-003
3.353936727507971e-001	-8.786709e-001	-2.272495e-003
3.363702352507971e-001	-8.844633e-001	-2.095982e-003
3.373467977507971e-001	-8.901225e-001	-1.945018e-003
3.388116415007971e-001	-8.983597e-001	-1.756213e-003
3.402764852507971e-001	-9.062924e-001	-1.602234e-003
3.417413290007971e-001	-9.139181e-001	-1.474660e-003
3.432061727507971e-001	-9.212341e-001	-1.367487e-003
3.451592977507971e-001	-9.305028e-001	-1.248938e-003
3.471124227507971e-001	-9.392110e-001	-1.151620e-003
3.495538290007971e-001	-9.493001e-001	-1.052194e-003
3.519952352507971e-001	-9.584957e-001	-9.711969e-004
3.549249227507971e-001	-9.683390e-001	-8.919050e-004
3.583428915007971e-001	-9.781634e-001	-8.174367e-004
3.622491415007971e-001	-9.871810e-001	-7.493630e-004
3.666436727507971e-001	-9.944823e-001	-6.881198e-004
3.715264852507971e-001	-9.990381e-001	-6.334052e-004
3.773858602507971e-001	-9.995412e-001	-5.804893e-004
3.842217977507971e-001	-9.932836e-001	-5.305163e-004
3.891046102507971e-001	-9.843242e-001	-5.000964e-004
3.988702352507971e-001	-9.553387e-001	-4.476828e-004
4.101007040007971e-001	-9.042790e-001	-3.955057e-004
4.213311727507971e-001	-8.352391e-001	-3.473232e-004
4.325616415007971e-001	-7.495915e-001	-3.003676e-004
4.437921102507971e-001	-6.490395e-001	-2.531169e-004
4.550225790007971e-001	-5.355822e-001	-2.048133e-004
4.662530477507971e-001	-4.114756e-001	-1.551974e-004
4.774835165007971e-001	-2.791874e-001	-1.043447e-004
4.887139852507971e-001	-1.413479e-001	-5.255357e-005
4.994561727507971e-001	-6.833817e-003	-2.536521e-006
4.999444540007971e-001	-6.980089e-004	-2.590795e-007
5.000000000000000e-001	-2.449213e-016	-9.090710e-020
Step Information: X=3  (Run: 3/5)
0.000000000000000e+000	0.000000e+000	0.000000e+000
3.199999909497819e-008	1.005310e-006	5.026548e-010
4.168393992586063e-003	1.305788e-001	6.545484e-005
8.660581492586063e-003	2.687331e-001	1.358503e-004
1.315276899258605e-002	4.015442e-001	2.059881e-004
1.764495649258603e-002	5.263711e-001	2.758513e-004
2.213714399258602e-002	6.407318e-001	3.455722e-004
2.662933149258600e-002	7.423525e-001	4.154927e-004
3.112151899258598e-002	8.292125e-001	4.862378e-004
3.561370649258604e-002	8.995849e-001	5.588087e-004
4.010589399258611e-002	9.520704e-001	6.347140e-004
4.459808149258617e-002	9.856251e-001	7.161612e-004
4.909026899258624e-002	9.995822e-001	8.063571e-004
5.358245649258630e-002	9.936640e-001	9.099969e-004
5.475433149258632e-002	9.888570e-001	9.400424e-004
5.846526899258637e-002	9.648357e-001	1.046161e-003
6.178558149258642e-002	9.322264e-001	1.159480e-003
6.471526899258645e-002	8.950233e-001	1.279226e-003
6.744964399258649e-002	8.534576e-001	1.413319e-003
6.998870649258653e-002	8.092179e-001	1.563005e-003
7.233245649258656e-002	7.638066e-001	1.728483e-003
7.467620649258659e-002	7.142562e-001	1.926065e-003
7.701995649258663e-002	6.608353e-001	2.160594e-003
7.975433149258666e-002	5.940060e-001	2.480201e-003
8.346526899258672e-002	4.964015e-001	2.938421e-003
8.502776899258674e-002	4.532088e-001	3.092097e-003
8.639495649258676e-002	4.145159e-001	3.175008e-003
8.756683149258678e-002	3.807393e-001	3.190914e-003
8.854339399258679e-002	3.521959e-001	3.156856e-003
8.951995649258680e-002	3.233212e-001	3.075619e-003
9.049651899258682e-002	2.941421e-001	2.946123e-003
9.147308149258683e-002	2.646862e-001	2.769956e-003
9.244964399258684e-002	2.349811e-001	2.550852e-003
9.342620649258686e-002	2.050549e-001	2.293932e-003
9.459808149258688e-002	1.688913e-001	1.943861e-003
9.576995649258689e-002	1.324987e-001	1.557724e-003
9.694183149258691e-002	9.592656e-002	1.144900e-003
9.811370649258693e-002	5.922443e-002	7.137776e-004
9.928558149258694e-002	2.244202e-002	2.718209e-004
1.006527689925870e-001	-2.050571e-002	-2.484016e-004
1.018246439925870e-001	-5.729095e-002	-6.907345e-004
1.029965189925870e-001	-9.399855e-002	-1.122604e-003
1.041683939925870e-001	-1.305788e-001	-1.536587e-003
1.053402689925870e-001	-1.669820e-001	-1.924351e-003
1.065121439925870e-001	-2.031590e-001	-2.276563e-003
1.074887064925871e-001	-2.330982e-001	-2.535676e-003
1.084652689925871e-001	-2.628180e-001	-2.757328e-003
1.094418314925871e-001	-2.922904e-001	-2.936334e-003
1.104183939925871e-001	-3.214878e-001	-3.068858e-003
1.113949564925871e-001	-3.503826e-001	-3.153148e-003
1.123715189925871e-001	-3.789476e-001	-3.190099e-003
1.133480814925871e-001	-4.071560e-001	-3.183345e-003
1.145199564925872e-001	-4.404980e-001	-3.126035e-003
1.160824564925872e-001	-4.840175e-001	-2.987625e-003
1.186215189925872e-001	-5.522044e-001	-2.684947e-003
1.219418314925873e-001	-6.360089e-001	-2.276636e-003
1.242855814925873e-001	-6.910532e-001	-2.025215e-003
1.266293314925872e-001	-7.423525e-001	-1.811709e-003
1.289730814925871e-001	-7.896290e-001	-1.632717e-003
1.315121439925869e-001	-8.360089e-001	-1.471232e-003
1.342465189925868e-001	-8.800031e-001	-1.327264e-003
1.371762064925866e-001	-9.199304e-001	-1.199491e-003
1.404965189925864e-001	-9.557518e-001	-1.079443e-003
1.442074564925862e-001	-9.834784e-001	-9.679344e-004
1.483090189925860e-001	-9.985799e-001	-8.643360e-004
1.528012064925857e-001	-9.961209e-001	-7.670533e-004
1.572933939925855e-001	-9.738555e-001	-6.810133e-004
1.617855814925852e-001	-9.322264e-001	-6.022242e-004
1.662777689925850e-001	-8.720612e-001	-5.279462e-004
1.707699564925847e-001	-7.945564e-001	-4.562951e-004
1.719418314925846e-001	-7.716695e-001	-4.378661e-004
1.764340189925844e-001	-6.745379e-001	-3.677669e-004
1.809262064925841e-001	-5.639940e-001	-2.980315e-004
1.854183939925839e-001	-4.422359e-001	-2.282366e-004
1.899105814925836e-001	-3.116845e-001	-1.581903e-004
1.944027689925834e-001	-1.749358e-001	-8.786812e-005
1.986996439925831e-001	-4.084014e-002	-2.042524e-005
1.998715189925830e-001	-4.036310e-003	-2.018172e-006
2.000000000000000e-001	-2.449213e-016	-1.224606e-019
Step Information: X=4  (Run: 4/5)
0.000000000000000e+000	0.000000e+000	0.000000e+000
3.124999992110134e-008	1.963495e-006	9.817477e-010
2.081124999676832e-003	1.303874e-001	6.527586e-005
4.327218749676832e-003	2.685472e-001	1.350059e-004
6.573312499676824e-003	4.013674e-001	2.032231e-004
8.819406249676816e-003	5.262069e-001	2.691452e-004
1.106549999967681e-002	6.405836e-001	3.319896e-004
1.331159374967680e-002	7.422231e-001	3.909679e-004
1.555768749967679e-002	8.291047e-001	4.452749e-004
1.780378124967682e-002	8.995006e-001	4.940723e-004
2.004987499967685e-002	9.520112e-001	5.364683e-004
2.229596874967689e-002	9.855925e-001	5.714935e-004
2.454206249967692e-002	9.995767e-001	5.980771e-004
2.678815624967695e-002	9.936857e-001	6.150305e-004
2.747174999967696e-002	9.879552e-001	6.180824e-004
2.971784374967699e-002	9.563761e-001	6.204955e-004
3.186628124967702e-002	9.083638e-001	6.108788e-004
3.381940624967705e-002	8.503455e-001	5.909763e-004
3.567487499967707e-002	7.833656e-001	5.614526e-004
3.743268749967710e-002	7.100844e-001	5.234525e-004
3.919049999967712e-002	6.281500e-001	4.754692e-004
4.085065624967715e-002	5.437207e-001	4.210685e-004
4.241315624967717e-002	4.588412e-001	3.621712e-004
4.397565624967719e-002	3.695428e-001	2.964546e-004
4.544049999967721e-002	2.825766e-001	2.294827e-004
4.690534374967723e-002	1.932182e-001	1.583479e-004
4.837018749967725e-002	1.022243e-001	8.425603e-005
4.973737499967727e-002	1.650031e-002	1.362938e-005
5.051862499967728e-002	-3.258010e-002	-2.690690e-005
5.198346874967730e-002	-1.243015e-001	-1.023440e-004
5.344831249967733e-002	-2.149707e-001	-1.758413e-004
5.491315624967735e-002	-3.038201e-001	-2.460747e-004
5.637799999967737e-002	-3.900976e-001	-3.118822e-004
5.676862499967737e-002	-4.125767e-001	-3.285562e-004
5.833112499967740e-002	-4.998751e-001	-3.911229e-004
5.989362499967742e-002	-5.823594e-001	-4.465301e-004
6.155378124967744e-002	-6.638366e-001	-4.970065e-004
6.331159374967740e-002	-7.422231e-001	-5.407546e-004
6.516706249967730e-002	-8.151345e-001	-5.761714e-004
6.712018749967719e-002	-8.799114e-001	-6.019362e-004
6.917096874967707e-002	-9.336685e-001	-6.170582e-004
7.131940624967695e-002	-9.733695e-001	-6.208812e-004
7.356549999967682e-002	-9.959314e-001	-6.130519e-004
7.581159374967669e-002	-9.986907e-001	-5.944984e-004
7.805768749967657e-002	-9.815924e-001	-5.665098e-004
8.030378124967644e-002	-9.449765e-001	-5.302560e-004
8.254987499967631e-002	-8.895711e-001	-4.867900e-004
8.479596874967618e-002	-8.164778e-001	-4.370676e-004
8.606549999967611e-002	-7.678762e-001	-4.065319e-004
8.831159374967598e-002	-6.701388e-001	-3.487673e-004
9.055768749967585e-002	-5.590766e-001	-2.869156e-004
