time	V(n001)	-I(V1)
Step Information: X=1  (Run: 1/5)
0.000000000000000e+000	0.000000e+000	0.000000e+000
9.837638470344245e-003	6.177177e-002	3.097908e-005
2.057982597034425e-002	1.289456e-001	6.532375e-005
3.132201347034425e-002	1.955322e-001	1.008059e-004
4.206420097034425e-002	2.612284e-001	1.381349e-004
5.182982597034425e-002	3.199278e-001	1.744042e-004
6.159545097034425e-002	3.774229e-001	2.137621e-004
7.038451347034425e-002	4.279600e-001	2.527403e-004
7.917357597034425e-002	4.771924e-001	2.962184e-004
8.698607597034425e-002	5.197377e-001	3.398534e-004
9.479857597034425e-002	5.610309e-001	3.897047e-004
1.016345134703443e-001	5.960571e-001	4.400352e-004
1.084704509703443e-001	6.299838e-001	4.986653e-004
1.143298259703443e-001	6.581412e-001	5.576212e-004
1.192126384703443e-001	6.809260e-001	6.147583e-004
1.240954509703443e-001	7.030700e-001	6.813001e-004
1.289782634703443e-001	7.245522e-001	7.600441e-004
1.328845134703443e-001	7.412480e-001	8.344441e-004
1.367907634703443e-001	7.574972e-001	9.220141e-004
1.397204509703443e-001	7.693852e-001	9.986589e-004
1.426501384703443e-001	7.810125e-001	1.087159e-003
1.455798259703443e-001	7.923752e-001	1.190502e-003
1.485095134703443e-001	8.034694e-001	1.312723e-003
1.514392009703443e-001	8.142914e-001	1.459385e-003
1.533923259703443e-001	8.213530e-001	1.574481e-003
1.553454509703443e-001	8.282908e-001	1.706969e-003
1.572985759703443e-001	8.351040e-001	1.860870e-003
1.592517009703443e-001	8.417914e-001	2.041444e-003
1.612048259703443e-001	8.483520e-001	2.255651e-003
1.632800212828443e-001	8.551905e-001	2.527174e-003
1.649890056578443e-001	8.607066e-001	2.799710e-003
1.665759197203443e-001	8.657396e-001	3.101201e-003
1.677966228453443e-001	8.695524e-001	3.372431e-003
1.692614665953443e-001	8.740615e-001	3.751441e-003
1.705432048765943e-001	8.779456e-001	4.142518e-003
1.718249431578443e-001	8.817727e-001	4.599286e-003
1.731066814390943e-001	8.855426e-001	5.132586e-003
1.743884197203443e-001	8.892552e-001	5.752309e-003
1.757617107359693e-001	8.931690e-001	6.518462e-003
1.774096599547193e-001	8.977777e-001	7.571124e-003
1.788745037047193e-001	9.017934e-001	8.592632e-003
1.813159099547193e-001	9.083164e-001	1.027899e-002
1.829333415953443e-001	9.125201e-001	1.122480e-002
1.845202556578443e-001	9.165533e-001	1.194212e-002
1.862292400328443e-001	9.207941e-001	1.248249e-002
1.879382244078443e-001	9.249254e-001	1.283210e-002
1.908679119078443e-001	9.317614e-001	1.317539e-002
1.967272869078443e-001	9.444927e-001	1.347757e-002
2.162585369078443e-001	9.776020e-001	1.396574e-002
2.387194744078443e-001	9.974799e-001	1.424971e-002
2.611804119078443e-001	9.975242e-001	1.425035e-002
2.836413494078443e-001	9.777342e-001	1.396763e-002
3.061022869078443e-001	9.385033e-001	1.340719e-002
3.285632244078443e-001	8.806117e-001	1.258017e-002
3.510241619078443e-001	8.052103e-001	1.150300e-002
3.734850994078443e-001	7.137985e-001	1.019712e-002
3.959460369078443e-001	6.081938e-001	8.688482e-003
4.057116619078443e-001	5.583742e-001	7.976774e-003
4.281725994078443e-001	4.361360e-001	6.230514e-003
4.506335369078443e-001	3.052259e-001	4.360370e-003
4.721179119078443e-001	1.742919e-001	2.489885e-003
4.936022869078443e-001	4.018681e-002	5.740973e-004
5.082507244078443e-001	-5.181713e-002	-7.402446e-004
5.297350994078443e-001	-1.857444e-001	-2.653491e-003
5.512194744078443e-001	-3.162920e-001	-4.518458e-003
5.736804119078443e-001	-4.465832e-001	-6.379761e-003
5.961413494078443e-001	-5.679948e-001	-8.114205e-003
6.176257244078443e-001	-6.735902e-001	-9.621127e-003
6.293444744078443e-001	-7.261361e-001	-1.032697e-002
6.332507244078443e-001	-7.427905e-001	-1.046338e-002
6.361804119078443e-001	-7.549881e-001	-1.043590e-002
6.381335369078443e-001	-7.629780e-001	-1.029066e-002
6.399645915953443e-001	-7.703710e-001	-1.002041e-002
6.416735759703443e-001	-7.771728e-001	-9.592117e-003
6.433825603453443e-001	-7.838855e-001	-8.990018e-003
6.452136150328443e-001	-7.909767e-001	-8.179531e-003
6.490588298765943e-001	-8.055267e-001	-6.294956e-003
6.507678142515943e-001	-8.118430e-001	-5.534115e-003
6.524767986265943e-001	-8.180656e-001	-4.868415e-003
6.540026775328443e-001	-8.235420e-001	-4.357218e-003
6.552844158140943e-001	-8.280827e-001	-3.985200e-003
6.567492595640943e-001	-8.332081e-001	-3.614719e-003
6.584582439390943e-001	-8.390975e-001	-3.248175e-003
6.601672283140943e-001	-8.448902e-001	-2.939763e-003
6.617541423765943e-001	-8.501782e-001	-2.697512e-003
6.637072673765943e-001	-8.565710e-001	-2.444293e-003
6.656603923765943e-001	-8.628387e-001	-2.230183e-003
6.676135173765943e-001	-8.689765e-001	-2.048580e-003
6.695666423765943e-001	-8.749834e-001	-1.893134e-003
6.715197673765943e-001	-8.808586e-001	-1.758923e-003
6.744494548765943e-001	-8.894224e-001	-1.589264e-003
6.773791423765943e-001	-8.976848e-001	-1.449258e-003
6.803088298765943e-001	-9.056430e-001	-1.332029e-003
6.832385173765943e-001	-9.132944e-001	-1.232602e-003
6.871447673765943e-001	-9.230144e-001	-1.121523e-003
6.910510173765943e-001	-9.321784e-001	-1.029388e-003
6.959338298765943e-001	-9.428432e-001	-9.342755e-004
7.008166423765943e-001	-9.526206e-001	-8.559798e-004
7.066760173765943e-001	-9.631693e-001	-7.785433e-004
7.125353923765943e-001	-9.724126e-001	-7.146204e-004
7.193713298765943e-001	-9.815302e-001	-6.527619e-004
7.271838298765943e-001	-9.897325e-001	-5.945289e-004
7.359728923765943e-001	-9.961092e-001	-5.406670e-004
7.457385173765943e-001	-9.996321e-001	-4.913395e-004
7.564807048765943e-001	-9.991617e-001	-4.463327e-004
7.691760173765943e-001	-9.927409e-001	-4.020854e-004
7.838244548765943e-001	-9.774922e-001	-3.594977e-004
8.004260173765943e-001	-9.502170e-001	-3.187662e-004
8.189807048765943e-001	-9.075269e-001	-2.796098e-004
8.414416423765943e-001	-8.394319e-001	-2.380310e-004
8.639025798765943e-001	-7.546461e-001	-2.004463e-004
8.863635173765943e-001	-6.548551e-001	-1.652813e-004
8.941760173765943e-001	-6.169838e-001	-1.534251e-004
9.166369548765943e-001	-5.001569e-001	-1.200451e-004
9.390978923765943e-001	-3.733852e-001	-8.734332e-005
9.615588298765943e-001	-2.391891e-001	-5.500444e-005
9.840197673765943e-001	-1.002372e-001	-2.284094e-005
9.996447673765943e-001	-2.231978e-003	-5.076354e-007
1.000000000000000e+000	-2.449213e-016	-5.570387e-020
Step Information: X=2  (Run: 2/5)
0.000000000000000e+000	0.000000e+000	0.000000e+000
1.279999963799128e-007	1.608495e-006	8.042477e-010
8.336787985172123e-003	1.045707e-001	5.250997e-005
1.761413173517212e-002	2.195406e-001	1.118977e-004
2.689147548517212e-002	3.315301e-001	1.734384e-004
3.568053798517212e-002	4.334975e-001	2.350262e-004
4.398131923517212e-002	5.249699e-001	2.975813e-004
5.179381923517212e-002	6.058654e-001	3.620061e-004
5.911803798517212e-002	6.764197e-001	4.292072e-004
6.595397548517212e-002	7.371155e-001	5.000980e-004
7.181335048517212e-002	7.848297e-001	5.693716e-004
7.718444423517212e-002	8.248374e-001	6.421079e-004
8.255553798517212e-002	8.610890e-001	7.266238e-004
8.743835048517212e-002	8.906462e-001	8.171378e-004
9.183288173517212e-002	9.143844e-001	9.135579e-004
9.573913173517212e-002	9.331468e-001	1.015119e-003
9.915710048517212e-002	9.477211e-001	1.120120e-003
1.025750692351721e-001	9.605474e-001	1.244943e-003
1.055047567351721e-001	9.701320e-001	1.372600e-003
1.084344442351721e-001	9.784018e-001	1.525420e-003
1.108758504851721e-001	9.842808e-001	1.677878e-003
1.133172567351721e-001	9.892335e-001	1.860256e-003
1.152703817351721e-001	9.925255e-001	2.033919e-003
1.172235067351721e-001	9.952196e-001	2.239302e-003
1.191766317351721e-001	9.973143e-001	2.485318e-003
1.206414754851721e-001	9.984910e-001	2.703663e-003
1.221063192351721e-001	9.993295e-001	2.958389e-003
1.235711629851721e-001	9.998294e-001	3.258146e-003
1.250360067351721e-001	9.999905e-001	3.613982e-003
1.265008504851721e-001	9.998218e-001	4.037514e-003
1.277825887664221e-001	9.993884e-001	4.480619e-003
1.290032918914221e-001	9.987343e-001	4.977129e-003
1.302850301726721e-001	9.977948e-001	5.590339e-003
1.315667684539221e-001	9.965971e-001	6.310366e-003
1.329095418914221e-001	9.950641e-001	7.187440e-003
1.345574911101721e-001	9.927962e-001	8.419033e-003
1.376092489226721e-001	9.874724e-001	1.083791e-002
1.391046102507971e-001	9.843331e-001	1.183936e-002
1.405084188445471e-001	9.810688e-001	1.255498e-002
1.416070516570471e-001	9.782985e-001	1.295530e-002
1.430718954070471e-001	9.743147e-001	1.330554e-002
1.450250204070471e-001	9.684958e-001	1.353676e-002
1.479547079070471e-001	9.586748e-001	1.359712e-002
1.538140829070471e-001	9.351503e-001	1.334882e-002
1.640679891570471e-001	8.818805e-001	1.259806e-002
1.752984579070471e-001	8.067992e-001	1.152570e-002
1.865289266570471e-001	7.156759e-001	1.022394e-002
1.977593954070471e-001	6.103224e-001	8.718892e-003
2.089898641570471e-001	4.928336e-001	7.040479e-003
2.177789266570471e-001	3.939250e-001	5.627499e-003
2.290093954070471e-001	2.607251e-001	3.724644e-003
2.397515829070471e-001	1.284285e-001	1.834693e-003
2.495172079070471e-001	6.066850e-003	8.666929e-005
2.514703329070471e-001	-1.847552e-002	-2.639361e-004
2.622125204070471e-001	-1.528639e-001	-2.183770e-003
2.729547079070471e-001	-2.844710e-001	-4.063871e-003
2.841851766570471e-001	-4.164883e-001	-5.949833e-003
2.954156454070471e-001	-5.402244e-001	-7.717492e-003
3.066461141570471e-001	-6.532189e-001	-9.331699e-003
3.178765829070471e-001	-7.532251e-001	-1.076035e-002
3.291070516570471e-001	-8.382545e-001	-1.197488e-002
3.393609579070471e-001	-9.013702e-001	-1.286964e-002
3.457086141570471e-001	-9.330088e-001	-1.325364e-002
3.491265829070471e-001	-9.475987e-001	-1.326841e-002
3.510797079070471e-001	-9.551526e-001	-1.309847e-002
3.525445516570471e-001	-9.604407e-001	-1.281056e-002
3.539483602507971e-001	-9.652119e-001	-1.235617e-002
3.553521688445471e-001	-9.696731e-001	-1.167806e-002
3.559930379851721e-001	-9.716109e-001	-1.129628e-002
3.575799520476721e-001	-9.761351e-001	-1.018943e-002
3.609063680632971e-001	-9.843575e-001	-7.638468e-003
3.624017293914221e-001	-9.874942e-001	-6.623596e-003
3.637750204070471e-001	-9.900676e-001	-5.819868e-003
3.650567586882971e-001	-9.922035e-001	-5.179846e-003
3.663384969695471e-001	-9.940821e-001	-4.635720e-003
3.676202352507971e-001	-9.957027e-001	-4.174117e-003
3.689019735320471e-001	-9.970560e-001	-3.783809e-003
3.703668172820471e-001	-9.982961e-001	-3.404749e-003
3.718316610320471e-001	-9.991981e-001	-3.086014e-003
3.732965047820471e-001	-9.997615e-001	-2.815778e-003
3.747613485320471e-001	-9.999861e-001	-2.584710e-003
3.762261922820471e-001	-9.998719e-001	-2.385485e-003
3.781793172820471e-001	-9.991926e-001	-2.159610e-003
3.801324422820471e-001	-9.979115e-001	-1.969816e-003
3.825738485320471e-001	-9.954648e-001	-1.771780e-003
3.850152547820471e-001	-9.920813e-001	-1.607315e-003
3.874566610320471e-001	-9.877641e-001	-1.468673e-003
3.903863485320471e-001	-9.813567e-001	-1.328593e-003
3.933160360320471e-001	-9.736193e-001	-1.210697e-003
3.967340047820471e-001	-9.629256e-001	-1.094618e-003
4.006402547820471e-001	-9.485306e-001	-9.835167e-004
4.045465047820471e-001	-9.318505e-001	-8.898489e-004
4.089410360320471e-001	-9.104042e-001	-8.002486e-004
4.138238485320471e-001	-8.833227e-001	-7.155422e-004
4.191949422820471e-001	-8.496974e-001	-6.359409e-004
4.250543172820471e-001	-8.086080e-001	-5.612330e-004
4.314019735320471e-001	-7.591571e-001	-4.909383e-004
4.382379110320471e-001	-7.005129e-001	-4.244202e-004
4.460504110320471e-001	-6.271922e-001	-3.569630e-004
4.484918172820471e-001	-6.030059e-001	-3.373474e-004
4.567925985320471e-001	-5.166678e-001	-2.746966e-004
4.655816610320471e-001	-4.191503e-001	-2.136059e-004
4.748590047820471e-001	-3.106987e-001	-1.531749e-004
4.846246297820471e-001	-1.920109e-001	-9.249753e-005
4.943902547820471e-001	-7.043510e-002	-3.353319e-005
4.997613485320471e-001	-2.998960e-003	-1.425193e-006
5.000000000000000e-001	-2.449213e-016	-1.163918e-019
Step Information: X=3  (Run: 3/5)
0.000000000000000e+000	0.000000e+000	0.000000e+000
3.199999909497819e-008	1.005310e-006	5.026548e-010
4.168393992586063e-003	1.305788e-001	6.546395e-005
8.660581492586063e-003	2.687331e-001	1.359223e-004
1.315276899258605e-002	4.015442e-001	2.061835e-004
1.764495649258603e-002	5.263711e-001	2.761258e-004
2.213714399258602e-002	6.407318e-001	3.455984e-004
2.662933149258600e-002	7.423525e-001	4.144009e-004
3.112151899258598e-002	8.292125e-001	4.822535e-004
3.561370649258604e-002	8.995849e-001	5.487524e-004
4.010589399258611e-002	9.520704e-001	6.133056e-004
4.459808149258617e-002	9.856251e-001	6.750429e-004
4.909026899258624e-002	9.995822e-001	7.326927e-004
5.358245649258630e-002	9.936640e-001	7.844213e-004
5.475433149258632e-002	9.888570e-001	7.966415e-004
5.924651899258638e-002	9.580952e-001	8.370970e-004
6.373870649258644e-002	9.082831e-001	8.643721e-004
6.784026899258649e-002	8.469982e-001	8.735409e-004
7.135589399258654e-002	7.832456e-001	8.658492e-004
7.448089399258659e-002	7.185371e-001	8.442019e-004
7.741058149258663e-002	6.515754e-001	8.091122e-004
8.014495649258667e-002	5.840895e-001	7.618848e-004
8.268401899258671e-002	5.175558e-001	7.045391e-004
8.502776899258674e-002	4.532088e-001	6.396438e-004
8.737151899258677e-002	3.864058e-001	5.632872e-004
8.951995649258680e-002	3.233212e-001	4.836413e-004
9.166839399258683e-002	2.587642e-001	3.955484e-004
9.381683149258686e-002	1.930289e-001	3.001644e-004
9.596526899258689e-002	1.264145e-001	1.990086e-004
9.791839399258692e-002	6.534836e-002	1.035738e-004
9.987151899258695e-002	4.036301e-003	6.413088e-006
1.010433939925870e-001	-3.277301e-002	-5.203964e-005
1.029965189925870e-001	-9.399855e-002	-1.485901e-004
1.051449564925870e-001	-1.609292e-001	-2.518960e-004
1.072933939925871e-001	-2.271270e-001	-3.502797e-004
1.094418314925871e-001	-2.922904e-001	-4.420635e-004
1.115902689925871e-001	-3.561229e-001	-5.259115e-004
1.133480814925871e-001	-4.071560e-001	-5.879303e-004
1.156918314925872e-001	-4.732429e-001	-6.607977e-004
1.182308939925872e-001	-5.419321e-001	-7.267417e-004
1.207699564925873e-001	-6.071749e-001	-7.793217e-004
1.235043314925873e-001	-6.731068e-001	-8.217221e-004
1.266293314925872e-001	-7.423525e-001	-8.536465e-004
1.299496439925870e-001	-8.080785e-001	-8.706022e-004
1.336605814925868e-001	-8.711118e-001	-8.722206e-004
1.379574564925866e-001	-9.292749e-001	-8.559143e-004
1.424496439925863e-001	-9.719902e-001	-8.231387e-004
1.469418314925861e-001	-9.953790e-001	-7.787651e-004
1.514340189925858e-001	-9.989760e-001	-7.262282e-004
1.559262064925855e-001	-9.827098e-001	-6.680194e-004
1.604183939925853e-001	-9.469038e-001	-6.058969e-004
1.649105814925850e-001	-8.922699e-001	-5.410780e-004
1.694027689925848e-001	-8.198946e-001	-4.743950e-004
1.719418314925846e-001	-7.716695e-001	-4.361022e-004
1.764340189925844e-001	-6.745379e-001	-3.675666e-004
1.809262064925841e-001	-5.639940e-001	-2.982823e-004
1.854183939925839e-001	-4.422359e-001	-2.284712e-004
1.899105814925836e-001	-3.116845e-001	-1.582972e-004
1.944027689925834e-001	-1.749358e-001	-8.788952e-005
1.986996439925831e-001	-4.084014e-002	-2.042554e-005
1.998715189925830e-001	-4.036310e-003	-2.018174e-006
2.000000000000000e-001	-2.449213e-016	-1.224606e-019
Step Information: X=4  (Run: 4/5)
0.000000000000000e+000	0.000000e+000	0.000000e+000
3.124999992110134e-008	1.963495e-006	9.817477e-010
2.081124999676832e-003	1.303874e-001	6.528046e-005
4.327218749676832e-003	2.685472e-001	1.350446e-004
6.573312499676824e-003	4.013674e-001	2.033433e-004
8.819406249676816e-003	5.262069e-001	2.693849e-004
1.106549999967681e-002	6.405836e-001	3.323388e-004
1.331159374967680e-002	7.422231e-001	3.913244e-004
1.555768749967679e-002	8.291047e-001	4.453994e-004
1.780378124967682e-002	8.995006e-001	4.935527e-004
2.004987499967685e-002	9.520112e-001	5.347009e-004
2.229596874967689e-002	9.855925e-001	5.676943e-004
2.454206249967692e-002	9.995767e-001	5.913319e-004
2.678815624967695e-002	9.936857e-001	6.043953e-004
2.747174999967696e-002	9.879552e-001	6.060895e-004
2.962018749967699e-002	9.581505e-001	6.039690e-004
3.167096874967702e-002	9.134269e-001	5.907869e-004
3.362409374967704e-002	8.567388e-001	5.675252e-004
3.557721874967707e-002	7.871646e-001	5.334845e-004
3.743268749967710e-002	7.100844e-001	4.911073e-004
3.919049999967712e-002	6.281500e-001	4.421421e-004
4.094831249967715e-002	5.385609e-001	3.850539e-004
4.270612499967717e-002	4.424090e-001	3.205664e-004
4.436628124967720e-002	3.466277e-001	2.537647e-004
4.602643749967722e-002	2.470783e-001	1.823078e-004
4.768659374967724e-002	1.448429e-001	1.074315e-004
4.934674999967727e-002	4.103300e-002	3.051029e-005
5.071393749967729e-002	-4.484255e-002	-3.334150e-005
5.237409374967731e-002	-1.486147e-001	-1.102134e-004
5.403424999967733e-002	-2.507713e-001	-1.849882e-004
5.569440624967736e-002	-3.502018e-001	-2.562956e-004
5.676862499967737e-002	-4.125767e-001	-3.000027e-004
5.852643749967740e-002	-5.104657e-001	-3.665196e-004
6.028424999967742e-002	-6.021341e-001	-4.259071e-004
6.204206249967745e-002	-6.864648e-001	-4.773590e-004
6.389753124967737e-002	-7.663862e-001	-5.224763e-004
6.575299999967726e-002	-8.359030e-001	-5.578480e-004
6.770612499967715e-002	-8.968029e-001	-5.845237e-004
6.975690624967704e-002	-9.462169e-001	-6.011509e-004
7.190534374967691e-002	-9.811462e-001	-6.066572e-004
7.415143749967679e-002	-9.985696e-001	-6.002947e-004
7.639753124967666e-002	-9.961379e-001	-5.826602e-004
7.864362499967653e-002	-9.738993e-001	-5.549607e-004
8.088971874967640e-002	-9.322962e-001	-5.184123e-004
8.313581249967628e-002	-8.721557e-001	-4.741974e-004
8.538190624967615e-002	-7.946736e-001	-4.234392e-004
8.606549999967611e-002	-7.678762e-001	-4.068548e-004
8.831159374967598e-002	-6.701388e-001	-3.491339e-004
9.055768749967585e-002	-5.590766e-001	-2.871897e-004
9.280378124967573e-002	-4.368980e-001	-2.219194e-004
9.504987499967560e-002	-3.060322e-001	-1.541658e-004
9.729596874967547e-002	-1.690815e-001	-8.473045e-005
9.944440624967535e-002	-3.490157e-002	-1.745251e-005
9.993268749967532e-002	-4.229325e-003	-2.114673e-006
1.000000000000000e-001	-2.449213e-016	-1.224606e-019
Step Information: X=5  (Run: 5/5)
0.000000000000000e+000	0.000000e+000	0.000000e+000
1.562499996055067e-008	1.963495e-006	9.817477e-010
1.040562499838416e-003	1.303874e-001	6.523704e-005
2.163609374838416e-003	2.685472e-001	1.346578e-004
3.286656249838412e-003	4.013674e-001	2.020032e-004
4.409703124838408e-003	5.262069e-001	2.662005e-004
5.532749999838404e-003	6.405836e-001	3.261845e-004
6.655796874838400e-003	7.422231e-001	3.809034e-004
7.778843749838396e-003	8.291047e-001	4.293278e-004
8.901890624838411e-003	8.995006e-001	4.704632e-004
1.002493749983843e-002	9.520112e-001	5.033675e-004
1.114798437483844e-002	9.855925e-001	5.271729e-004
1.227103124983846e-002	9.995767e-001	5.411133e-004
1.339407812483848e-002	9.936857e-001	5.445568e-004
1.373587499983848e-002	9.879552e-001	5.434459e-004
1.481009374983850e-002	9.581505e-001	5.332439e-004
1.588431249983851e-002	9.109125e-001	5.127610e-004
1.690970312483852e-002	8.503455e-001	4.836660e-004
1.793509374983854e-002	7.756793e-001	4.455046e-004
1.896048437483855e-002	6.881520e-001	3.987486e-004
1.993704687483857e-002	5.941613e-001	3.468647e-004
2.091360937483858e-002	4.912338e-001	2.886102e-004
2.189017187483859e-002	3.809177e-001	2.249547e-004
2.286673437483861e-002	2.648723e-001	1.570250e-004
2.384329687483862e-002	1.448429e-001	8.607805e-005
2.477103124983864e-002	2.876882e-002	1.711378e-005
2.535696874983864e-002	-4.484255e-002	-2.667406e-005
2.628470312483866e-002	-1.607387e-001	-9.550181e-005
2.726126562483867e-002	-2.803476e-001	-1.661286e-004
2.823782812483868e-002	-3.957399e-001	-2.335672e-004
2.838431249983869e-002	-4.125767e-001	-2.433296e-004
2.936087499983870e-002	-5.209794e-001	-3.055746e-004
3.033743749983871e-002	-6.215460e-001	-3.621290e-004
3.136282812483872e-002	-7.170542e-001	-4.143810e-004
3.238821874983866e-002	-8.006734e-001	-4.584917e-004
3.341360937483860e-002	-8.710170e-001	-4.938347e-004
3.443899999983854e-002	-9.269186e-001	-5.200086e-004
3.551321874983848e-002	-9.689858e-001	-5.373925e-004
